# X Y Z FREQUENCY HZ_REAL HZ_IMAG
5.0000e+01 0.0000e+00 3.0000e+01 2.5000e+01 1.5915e+01 7.1420e+01
5.0000e+01 0.0000e+00 3.0000e+01 1.0000e+02 9.7611e+01 2.1091e+02
5.0000e+01 0.0000e+00 3.0000e+01 3.8200e+02 3.7028e+02 4.4079e+02
5.0000e+01 0.0000e+00 3.0000e+01 1.8220e+03 8.4720e+02 6.4806e+02
5.0000e+01 0.0000e+00 3.0000e+01 7.9700e+03 1.4219e+03 1.2507e+03
5.0000e+01 0.0000e+00 3.0000e+01 3.5920e+04 3.3372e+03 2.1470e+03
1.5000e+02 0.0000e+00 3.0000e+01 2.5000e+01 1.5326e+01 7.5194e+01
1.5000e+02 0.0000e+00 3.0000e+01 1.0000e+02 9.6577e+01 2.1898e+02
1.5000e+02 0.0000e+00 3.0000e+01 3.8200e+02 3.8133e+02 4.3901e+02
1.5000e+02 0.0000e+00 3.0000e+01 1.8220e+03 9.0126e+02 6.2998e+02
1.5000e+02 0.0000e+00 3.0000e+01 7.9700e+03 1.4237e+03 1.2367e+03
1.5000e+02 0.0000e+00 3.0000e+01 3.5920e+04 3.4044e+03 2.2180e+03
2.5000e+02 0.0000e+00 3.0000e+01 2.5000e+01 1.6463e+01 7.4239e+01
2.5000e+02 0.0000e+00 3.0000e+01 1.0000e+02 9.8703e+01 2.1430e+02
2.5000e+02 0.0000e+00 3.0000e+01 3.8200e+02 3.6092e+02 4.3158e+02
2.5000e+02 0.0000e+00 3.0000e+01 1.8220e+03 8.3603e+02 6.4963e+02
2.5000e+02 0.0000e+00 3.0000e+01 7.9700e+03 1.4161e+03 1.2516e+03
2.5000e+02 0.0000e+00 3.0000e+01 3.5920e+04 3.3872e+03 2.2194e+03
3.5000e+02 0.0000e+00 3.0000e+01 2.5000e+01 1.6088e+01 7.5926e+01
3.5000e+02 0.0000e+00 3.0000e+01 1.0000e+02 9.6758e+01 2.0823e+02
3.5000e+02 0.0000e+00 3.0000e+01 3.8200e+02 3.7930e+02 4.5329e+02
3.5000e+02 0.0000e+00 3.0000e+01 1.8220e+03 8.5764e+02 6.1469e+02
3.5000e+02 0.0000e+00 3.0000e+01 7.9700e+03 1.4849e+03 1.2815e+03
3.5000e+02 0.0000e+00 3.0000e+01 3.5920e+04 3.3003e+03 2.3287e+03
4.5000e+02 0.0000e+00 3.0000e+01 2.5000e+01 1.7525e+01 8.1232e+01
4.5000e+02 0.0000e+00 3.0000e+01 1.0000e+02 1.0692e+02 2.3363e+02
4.5000e+02 0.0000e+00 3.0000e+01 3.8200e+02 3.9777e+02 4.3578e+02
4.5000e+02 0.0000e+00 3.0000e+01 1.8220e+03 8.7774e+02 6.2252e+02
4.5000e+02 0.0000e+00 3.0000e+01 7.9700e+03 1.4895e+03 1.1912e+03
4.5000e+02 0.0000e+00 3.0000e+01 3.5920e+04 3.5422e+03 2.3202e+03
5.5000e+02 0.0000e+00 3.0000e+01 2.5000e+01 1.7336e+01 7.9259e+01
5.5000e+02 0.0000e+00 3.0000e+01 1.0000e+02 1.0872e+02 2.1847e+02
5.5000e+02 0.0000e+00 3.0000e+01 3.8200e+02 3.7680e+02 4.4224e+02
5.5000e+02 0.0000e+00 3.0000e+01 1.8220e+03 8.7268e+02 6.5216e+02
5.5000e+02 0.0000e+00 3.0000e+01 7.9700e+03 1.5324e+03 1.2787e+03
5.5000e+02 0.0000e+00 3.0000e+01 3.5920e+04 3.5039e+03 2.2857e+03
6.5000e+02 0.0000e+00 3.0000e+01 2.5000e+01 1.8927e+01 7.9709e+01
6.5000e+02 0.0000e+00 3.0000e+01 1.0000e+02 1.0757e+02 2.2180e+02
6.5000e+02 0.0000e+00 3.0000e+01 3.8200e+02 3.8928e+02 4.0952e+02
6.5000e+02 0.0000e+00 3.0000e+01 1.8220e+03 8.7721e+02 6.0767e+02
6.5000e+02 0.0000e+00 3.0000e+01 7.9700e+03 1.4991e+03 1.2341e+03
6.5000e+02 0.0000e+00 3.0000e+01 3.5920e+04 3.2949e+03 2.2545e+03
7.5000e+02 0.0000e+00 3.0000e+01 2.5000e+01 1.8330e+01 7.9027e+01
7.5000e+02 0.0000e+00 3.0000e+01 1.0000e+02 1.1273e+02 2.2719e+02
7.5000e+02 0.0000e+00 3.0000e+01 3.8200e+02 3.9102e+02 4.1643e+02
7.5000e+02 0.0000e+00 3.0000e+01 1.8220e+03 8.3952e+02 6.1259e+02
7.5000e+02 0.0000e+00 3.0000e+01 7.9700e+03 1.4230e+03 1.2194e+03
7.5000e+02 0.0000e+00 3.0000e+01 3.5920e+04 3.3172e+03 2.2743e+03
8.5000e+02 0.0000e+00 3.0000e+01 2.5000e+01 1.9795e+01 8.4925e+01
8.5000e+02 0.0000e+00 3.0000e+01 1.0000e+02 1.2070e+02 2.2317e+02
8.5000e+02 0.0000e+00 3.0000e+01 3.8200e+02 4.1698e+02 4.1984e+02
8.5000e+02 0.0000e+00 3.0000e+01 1.8220e+03 8.1387e+02 6.0834e+02
8.5000e+02 0.0000e+00 3.0000e+01 7.9700e+03 1.5055e+03 1.2889e+03
8.5000e+02 0.0000e+00 3.0000e+01 3.5920e+04 3.4239e+03 2.1455e+03
9.5000e+02 0.0000e+00 3.0000e+01 2.5000e+01 1.9827e+01 8.5855e+01
9.5000e+02 0.0000e+00 3.0000e+01 1.0000e+02 1.1741e+02 2.4136e+02
9.5000e+02 0.0000e+00 3.0000e+01 3.8200e+02 4.1353e+02 3.9797e+02
9.5000e+02 0.0000e+00 3.0000e+01 1.8220e+03 8.6179e+02 6.0603e+02
9.5000e+02 0.0000e+00 3.0000e+01 7.9700e+03 1.5041e+03 1.2312e+03
9.5000e+02 0.0000e+00 3.0000e+01 3.5920e+04 3.2310e+03 2.3378e+03
1.0500e+03 0.0000e+00 3.0000e+01 2.5000e+01 2.0242e+01 8.2646e+01
1.0500e+03 0.0000e+00 3.0000e+01 1.0000e+02 1.2690e+02 2.2366e+02
1.0500e+03 0.0000e+00 3.0000e+01 3.8200e+02 4.1581e+02 4.2864e+02
1.0500e+03 0.0000e+00 3.0000e+01 1.8220e+03 8.8371e+02 6.4029e+02
1.0500e+03 0.0000e+00 3.0000e+01 7.9700e+03 1.4528e+03 1.2625e+03
1.0500e+03 0.0000e+00 3.0000e+01 3.5920e+04 3.4650e+03 2.2542e+03
1.1500e+03 0.0000e+00 3.0000e+01 2.5000e+01 2.1178e+01 8.4081e+01
1.1500e+03 0.0000e+00 3.0000e+01 1.0000e+02 1.1777e+02 2.3432e+02
1.1500e+03 0.0000e+00 3.0000e+01 3.8200e+02 4.1548e+02 4.2991e+02
1.1500e+03 0.0000e+00 3.0000e+01 1.8220e+03 8.7045e+02 6.3771e+02
1.1500e+03 0.0000e+00 3.0000e+01 7.9700e+03 1.5105e+03 1.2931e+03
1.1500e+03 0.0000e+00 3.0000e+01 3.5920e+04 3.3427e+03 2.2305e+03
1.2500e+03 0.0000e+00 3.0000e+01 2.5000e+01 2.1663e+01 8.4442e+01
1.2500e+03 0.0000e+00 3.0000e+01 1.0000e+02 1.2286e+02 2.3682e+02
1.2500e+03 0.0000e+00 3.0000e+01 3.8200e+02 4.1562e+02 4.2425e+02
1.2500e+03 0.0000e+00 3.0000e+01 1.8220e+03 8.1292e+02 6.3468e+02
1.2500e+03 0.0000e+00 3.0000e+01 7.9700e+03 1.5031e+03 1.2207e+03
1.2500e+03 0.0000e+00 3.0000e+01 3.5920e+04 3.2932e+03 2.2664e+03
1.3500e+03 0.0000e+00 3.0000e+01 2.5000e+01 2.1020e+01 8.0332e+01
1.3500e+03 0.0000e+00 3.0000e+01 1.0000e+02 1.2490e+02 2.2681e+02
1.3500e+03 0.0000e+00 3.0000e+01 3.8200e+02 4.1457e+02 4.3242e+02
1.3500e+03 0.0000e+00 3.0000e+01 1.8220e+03 8.2664e+02 6.2694e+02
1.3500e+03 0.0000e+00 3.0000e+01 7.9700e+03 1.4460e+03 1.1893e+03
1.3500e+03 0.0000e+00 3.0000e+01 3.5920e+04 3.4570e+03 2.2041e+03
1.4500e+03 0.0000e+00 3.0000e+01 2.5000e+01 2.3588e+01 9.1307e+01
1.4500e+03 0.0000e+00 3.0000e+01 1.0000e+02 1.3532e+02 2.2637e+02
1.4500e+03 0.0000e+00 3.0000e+01 3.8200e+02 4.0729e+02 4.2192e+02
1.4500e+03 0.0000e+00 3.0000e+01 1.8220e+03 8.6481e+02 6.5299e+02
1.4500e+03 0.0000e+00 3.0000e+01 7.9700e+03 1.5038e+03 1.2497e+03
1.4500e+03 0.0000e+00 3.0000e+01 3.5920e+04 3.5498e+03 2.3510e+03
1.5500e+03 0.0000e+00 3.0000e+01 2.5000e+01 2.3873e+01 8.6294e+01
1.5500e+03 0.0000e+00 3.0000e+01 1.0000e+02 1.3814e+02 2.4320e+02
1.5500e+03 0.0000e+00 3.0000e+01 3.8200e+02 4.2026e+02 4.2040e+02
1.5500e+03 0.0000e+00 3.0000e+01 1.8220e+03 8.2195e+02 6.4490e+02
1.5500e+03 0.0000e+00 3.0000e+01 7.9700e+03 1.5255e+03 1.2174e+03
1.5500e+03 0.0000e+00 3.0000e+01 3.5920e+04 3.4708e+03 2.2729e+03
1.6500e+03 0.0000e+00 3.0000e+01 2.5000e+01 2.2868e+01 9.0562e+01
1.6500e+03 0.0000e+00 3.0000e+01 1.0000e+02 1.3762e+02 2.4112e+02
1.6500e+03 0.0000e+00 3.0000e+01 3.8200e+02 3.9908e+02 3.9998e+02
1.6500e+03 0.0000e+00 3.0000e+01 1.8220e+03 8.7781e+02 6.0754e+02
1.6500e+03 0.0000e+00 3.0000e+01 7.9700e+03 1.4775e+03 1.3057e+03
1.6500e+03 0.0000e+00 3.0000e+01 3.5920e+04 3.4884e+03 2.1840e+03
1.7500e+03 0.0000e+00 3.0000e+01 2.5000e+01 2.3991e+01 8.8948e+01
1.7500e+03 0.0000e+00 3.0000e+01 1.0000e+02 1.3120e+02 2.4335e+02
1.7500e+03 0.0000e+00 3.0000e+01 3.8200e+02 4.2381e+02 4.1563e+02
1.7500e+03 0.0000e+00 3.0000e+01 1.8220e+03 8.4923e+02 6.0411e+02
1.7500e+03 0.0000e+00 3.0000e+01 7.9700e+03 1.4533e+03 1.2308e+03
1.7500e+03 0.0000e+00 3.0000e+01 3.5920e+04 3.4028e+03 2.1715e+03
1.8500e+03 0.0000e+00 3.0000e+01 2.5000e+01 2.3709e+01 8.9224e+01
1.8500e+03 0.0000e+00 3.0000e+01 1.0000e+02 1.3014e+02 2.4699e+02
1.8500e+03 0.0000e+00 3.0000e+01 3.8200e+02 4.1203e+02 3.9926e+02
1.8500e+03 0.0000e+00 3.0000e+01 1.8220e+03 8.5485e+02 6.5157e+02
1.8500e+03 0.0000e+00 3.0000e+01 7.9700e+03 1.5198e+03 1.2775e+03
1.8500e+03 0.0000e+00 3.0000e+01 3.5920e+04 3.4277e+03 2.1576e+03
1.9500e+03 0.0000e+00 3.0000e+01 2.5000e+01 2.3814e+01 8.5748e+01
1.9500e+03 0.0000e+00 3.0000e+01 1.0000e+02 1.3911e+02 2.3967e+02
1.9500e+03 0.0000e+00 3.0000e+01 3.8200e+02 4.0489e+02 3.8661e+02
1.9500e+03 0.0000e+00 3.0000e+01 1.8220e+03 8.4186e+02 6.1552e+02
1.9500e+03 0.0000e+00 3.0000e+01 7.9700e+03 1.4482e+03 1.2485e+03
1.9500e+03 0.0000e+00 3.0000e+01 3.5920e+04 3.3826e+03 2.2952e+03
2.0500e+03 0.0000e+00 3.0000e+01 2.5000e+01 2.6062e+01 8.7436e+01
2.0500e+03 0.0000e+00 3.0000e+01 1.0000e+02 1.4523e+02 2.3193e+02
2.0500e+03 0.0000e+00 3.0000e+01 3.8200e+02 3.9751e+02 4.0643e+02
2.0500e+03 0.0000e+00 3.0000e+01 1.8220e+03 8.8418e+02 6.2093e+02
2.0500e+03 0.0000e+00 3.0000e+01 7.9700e+03 1.4120e+03 1.2230e+03
2.0500e+03 0.0000e+00 3.0000e+01 3.5920e+04 3.5372e+03 2.2970e+03
2.1500e+03 0.0000e+00 3.0000e+01 2.5000e+01 2.6520e+01 9.0830e+01
2.1500e+03 0.0000e+00 3.0000e+01 1.0000e+02 1.4796e+02 2.4769e+02
2.1500e+03 0.0000e+00 3.0000e+01 3.8200e+02 4.2194e+02 4.1661e+02
2.1500e+03 0.0000e+00 3.0000e+01 1.8220e+03 8.7565e+02 5.9948e+02
2.1500e+03 0.0000e+00 3.0000e+01 7.9700e+03 1.5051e+03 1.2859e+03
2.1500e+03 0.0000e+00 3.0000e+01 3.5920e+04 3.4803e+03 2.3262e+03
2.2500e+03 0.0000e+00 3.0000e+01 2.5000e+01 2.6238e+01 9.0082e+01
2.2500e+03 0.0000e+00 3.0000e+01 1.0000e+02 1.4766e+02 2.4032e+02
2.2500e+03 0.0000e+00 3.0000e+01 3.8200e+02 4.1098e+02 4.0110e+02
2.2500e+03 0.0000e+00 3.0000e+01 1.8220e+03 8.7645e+02 6.4162e+02
2.2500e+03 0.0000e+00 3.0000e+01 7.9700e+03 1.5118e+03 1.2735e+03
2.2500e+03 0.0000e+00 3.0000e+01 3.5920e+04 3.3973e+03 2.2408e+03
2.3500e+03 0.0000e+00 3.0000e+01 2.5000e+01 2.4984e+01 8.8810e+01
2.3500e+03 0.0000e+00 3.0000e+01 1.0000e+02 1.4043e+02 2.4419e+02
2.3500e+03 0.0000e+00 3.0000e+01 3.8200e+02 4.0010e+02 3.8783e+02
2.3500e+03 0.0000e+00 3.0000e+01 1.8220e+03 8.8158e+02 6.4582e+02
2.3500e+03 0.0000e+00 3.0000e+01 7.9700e+03 1.4644e+03 1.2317e+03
2.3500e+03 0.0000e+00 3.0000e+01 3.5920e+04 3.5472e+03 2.2664e+03
2.4500e+03 0.0000e+00 3.0000e+01 2.5000e+01 2.5076e+01 9.3027e+01
2.4500e+03 0.0000e+00 3.0000e+01 1.0000e+02 1.4104e+02 2.2639e+02
2.4500e+03 0.0000e+00 3.0000e+01 3.8200e+02 4.0458e+02 3.8801e+02
2.4500e+03 0.0000e+00 3.0000e+01 1.8220e+03 8.5846e+02 6.5855e+02
2.4500e+03 0.0000e+00 3.0000e+01 7.9700e+03 1.5036e+03 1.1980e+03
2.4500e+03 0.0000e+00 3.0000e+01 3.5920e+04 3.2547e+03 2.1933e+03
2.5500e+03 0.0000e+00 3.0000e+01 2.5000e+01 2.5772e+01 9.4190e+01
2.5500e+03 0.0000e+00 3.0000e+01 1.0000e+02 1.4374e+02 2.3099e+02
2.5500e+03 0.0000e+00 3.0000e+01 3.8200e+02 4.2536e+02 3.9403e+02
2.5500e+03 0.0000e+00 3.0000e+01 1.8220e+03 8.7369e+02 6.4539e+02
2.5500e+03 0.0000e+00 3.0000e+01 7.9700e+03 1.4409e+03 1.2607e+03
2.5500e+03 0.0000e+00 3.0000e+01 3.5920e+04 3.5448e+03 2.3289e+03
2.6500e+03 0.0000e+00 3.0000e+01 2.5000e+01 3.0006e+01 9.8084e+01
2.6500e+03 0.0000e+00 3.0000e+01 1.0000e+02 1.5462e+02 2.3911e+02
2.6500e+03 0.0000e+00 3.0000e+01 3.8200e+02 4.0498e+02 3.9171e+02
2.6500e+03 0.0000e+00 3.0000e+01 1.8220e+03 8.6690e+02 6.5341e+02
2.6500e+03 0.0000e+00 3.0000e+01 7.9700e+03 1.5072e+03 1.2347e+03
2.6500e+03 0.0000e+00 3.0000e+01 3.5920e+04 3.2408e+03 2.1747e+03
2.7500e+03 0.0000e+00 3.0000e+01 2.5000e+01 2.7382e+01 9.3579e+01
2.7500e+03 0.0000e+00 3.0000e+01 1.0000e+02 1.4222e+02 2.3557e+02
2.7500e+03 0.0000e+00 3.0000e+01 3.8200e+02 4.1268e+02 4.1058e+02
2.7500e+03 0.0000e+00 3.0000e+01 1.8220e+03 8.2239e+02 5.9930e+02
2.7500e+03 0.0000e+00 3.0000e+01 7.9700e+03 1.4190e+03 1.2609e+03
2.7500e+03 0.0000e+00 3.0000e+01 3.5920e+04 3.3764e+03 2.2487e+03
2.8500e+03 0.0000e+00 3.0000e+01 2.5000e+01 2.7780e+01 9.4010e+01
2.8500e+03 0.0000e+00 3.0000e+01 1.0000e+02 1.4179e+02 2.2832e+02
2.8500e+03 0.0000e+00 3.0000e+01 3.8200e+02 4.2383e+02 3.9123e+02
2.8500e+03 0.0000e+00 3.0000e+01 1.8220e+03 8.5817e+02 6.1144e+02
2.8500e+03 0.0000e+00 3.0000e+01 7.9700e+03 1.5203e+03 1.2503e+03
2.8500e+03 0.0000e+00 3.0000e+01 3.5920e+04 3.3016e+03 2.3174e+03
2.9500e+03 0.0000e+00 3.0000e+01 2.5000e+01 2.7621e+01 9.4984e+01
2.9500e+03 0.0000e+00 3.0000e+01 1.0000e+02 1.4680e+02 2.4279e+02
2.9500e+03 0.0000e+00 3.0000e+01 3.8200e+02 4.1699e+02 3.8994e+02
2.9500e+03 0.0000e+00 3.0000e+01 1.8220e+03 8.5290e+02 6.4954e+02
2.9500e+03 0.0000e+00 3.0000e+01 7.9700e+03 1.5095e+03 1.2485e+03
2.9500e+03 0.0000e+00 3.0000e+01 3.5920e+04 3.3529e+03 2.2391e+03
3.0500e+03 0.0000e+00 3.0000e+01 2.5000e+01 2.9414e+01 9.0478e+01
3.0500e+03 0.0000e+00 3.0000e+01 1.0000e+02 1.4193e+02 2.4567e+02
3.0500e+03 0.0000e+00 3.0000e+01 3.8200e+02 4.1163e+02 3.8454e+02
3.0500e+03 0.0000e+00 3.0000e+01 1.8220e+03 8.7698e+02 6.2707e+02
3.0500e+03 0.0000e+00 3.0000e+01 7.9700e+03 1.4646e+03 1.2904e+03
3.0500e+03 0.0000e+00 3.0000e+01 3.5920e+04 3.3028e+03 2.2474e+03
3.1500e+03 0.0000e+00 3.0000e+01 2.5000e+01 2.8798e+01 9.5203e+01
3.1500e+03 0.0000e+00 3.0000e+01 1.0000e+02 1.5410e+02 2.3544e+02
3.1500e+03 0.0000e+00 3.0000e+01 3.8200e+02 4.0583e+02 3.9977e+02
3.1500e+03 0.0000e+00 3.0000e+01 1.8220e+03 8.1854e+02 6.0848e+02
3.1500e+03 0.0000e+00 3.0000e+01 7.9700e+03 1.4264e+03 1.2262e+03
3.1500e+03 0.0000e+00 3.0000e+01 3.5920e+04 3.4295e+03 2.3008e+03
3.2500e+03 0.0000e+00 3.0000e+01 2.5000e+01 2.8873e+01 9.0711e+01
3.2500e+03 0.0000e+00 3.0000e+01 1.0000e+02 1.4475e+02 2.2406e+02
3.2500e+03 0.0000e+00 3.0000e+01 3.8200e+02 4.1377e+02 4.0992e+02
3.2500e+03 0.0000e+00 3.0000e+01 1.8220e+03 8.5222e+02 6.1352e+02
3.2500e+03 0.0000e+00 3.0000e+01 7.9700e+03 1.4088e+03 1.2912e+03
3.2500e+03 0.0000e+00 3.0000e+01 3.5920e+04 3.3034e+03 2.3082e+03
3.3500e+03 0.0000e+00 3.0000e+01 2.5000e+01 3.1818e+01 9.3493e+01
3.3500e+03 0.0000e+00 3.0000e+01 1.0000e+02 1.5505e+02 2.2382e+02
3.3500e+03 0.0000e+00 3.0000e+01 3.8200e+02 4.2227e+02 3.8510e+02
3.3500e+03 0.0000e+00 3.0000e+01 1.8220e+03 8.3343e+02 6.1444e+02
3.3500e+03 0.0000e+00 3.0000e+01 7.9700e+03 1.4396e+03 1.2924e+03
3.3500e+03 0.0000e+00 3.0000e+01 3.5920e+04 3.2543e+03 2.1591e+03
3.4500e+03 0.0000e+00 3.0000e+01 2.5000e+01 3.2143e+01 9.9371e+01
3.4500e+03 0.0000e+00 3.0000e+01 1.0000e+02 1.4628e+02 2.2209e+02
3.4500e+03 0.0000e+00 3.0000e+01 3.8200e+02 4.1874e+02 3.7898e+02
3.4500e+03 0.0000e+00 3.0000e+01 1.8220e+03 8.6472e+02 6.3382e+02
3.4500e+03 0.0000e+00 3.0000e+01 7.9700e+03 1.4997e+03 1.2142e+03
3.4500e+03 0.0000e+00 3.0000e+01 3.5920e+04 3.5394e+03 2.2180e+03
3.5500e+03 0.0000e+00 3.0000e+01 2.5000e+01 3.2466e+01 9.3603e+01
3.5500e+03 0.0000e+00 3.0000e+01 1.0000e+02 1.4678e+02 2.3985e+02
3.5500e+03 0.0000e+00 3.0000e+01 3.8200e+02 3.9977e+02 3.9389e+02
3.5500e+03 0.0000e+00 3.0000e+01 1.8220e+03 8.1861e+02 6.3928e+02
3.5500e+03 0.0000e+00 3.0000e+01 7.9700e+03 1.4790e+03 1.2796e+03
3.5500e+03 0.0000e+00 3.0000e+01 3.5920e+04 3.4201e+03 2.1686e+03
3.6500e+03 0.0000e+00 3.0000e+01 2.5000e+01 3.0277e+01 9.8037e+01
3.6500e+03 0.0000e+00 3.0000e+01 1.0000e+02 1.4566e+02 2.2920e+02
3.6500e+03 0.0000e+00 3.0000e+01 3.8200e+02 3.9665e+02 3.9211e+02
3.6500e+03 0.0000e+00 3.0000e+01 1.8220e+03 8.4852e+02 6.0995e+02
3.6500e+03 0.0000e+00 3.0000e+01 7.9700e+03 1.5293e+03 1.2140e+03
3.6500e+03 0.0000e+00 3.0000e+01 3.5920e+04 3.3667e+03 2.2279e+03
3.7500e+03 0.0000e+00 3.0000e+01 2.5000e+01 3.1074e+01 1.0038e+02
3.7500e+03 0.0000e+00 3.0000e+01 1.0000e+02 1.5309e+02 2.2519e+02
3.7500e+03 0.0000e+00 3.0000e+01 3.8200e+02 3.9206e+02 3.9255e+02
3.7500e+03 0.0000e+00 3.0000e+01 1.8220e+03 8.4828e+02 6.0831e+02
3.7500e+03 0.0000e+00 3.0000e+01 7.9700e+03 1.4868e+03 1.2764e+03
3.7500e+03 0.0000e+00 3.0000e+01 3.5920e+04 3.3952e+03 2.2908e+03
3.8500e+03 0.0000e+00 3.0000e+01 2.5000e+01 3.2006e+01 9.4246e+01
3.8500e+03 0.0000e+00 3.0000e+01 1.0000e+02 1.5133e+02 2.2249e+02
3.8500e+03 0.0000e+00 3.0000e+01 3.8200e+02 3.9709e+02 3.9122e+02
3.8500e+03 0.0000e+00 3.0000e+01 1.8220e+03 8.3355e+02 6.1918e+02
3.8500e+03 0.0000e+00 3.0000e+01 7.9700e+03 1.4261e+03 1.2810e+03
3.8500e+03 0.0000e+00 3.0000e+01 3.5920e+04 3.5099e+03 2.2449e+03
3.9500e+03 0.0000e+00 3.0000e+01 2.5000e+01 3.1000e+01 9.3969e+01
3.9500e+03 0.0000e+00 3.0000e+01 1.0000e+02 1.4719e+02 2.2245e+02
3.9500e+03 0.0000e+00 3.0000e+01 3.8200e+02 4.0484e+02 3.7872e+02
3.9500e+03 0.0000e+00 3.0000e+01 1.8220e+03 8.6701e+02 6.3749e+02
3.9500e+03 0.0000e+00 3.0000e+01 7.9700e+03 1.5233e+03 1.2430e+03
3.9500e+03 0.0000e+00 3.0000e+01 3.5920e+04 3.3252e+03 2.2493e+03
4.0500e+03 0.0000e+00 3.0000e+01 2.5000e+01 3.0514e+01 9.1822e+01
4.0500e+03 0.0000e+00 3.0000e+01 1.0000e+02 1.5437e+02 2.4310e+02
4.0500e+03 0.0000e+00 3.0000e+01 3.8200e+02 3.9367e+02 3.8385e+02
4.0500e+03 0.0000e+00 3.0000e+01 1.8220e+03 8.0788e+02 6.3862e+02
4.0500e+03 0.0000e+00 3.0000e+01 7.9700e+03 1.4066e+03 1.2608e+03
4.0500e+03 0.0000e+00 3.0000e+01 3.5920e+04 3.3303e+03 2.1950e+03
4.1500e+03 0.0000e+00 3.0000e+01 2.5000e+01 3.3229e+01 1.0045e+02
4.1500e+03 0.0000e+00 3.0000e+01 1.0000e+02 1.5663e+02 2.2972e+02
4.1500e+03 0.0000e+00 3.0000e+01 3.8200e+02 4.0514e+02 3.9074e+02
4.1500e+03 0.0000e+00 3.0000e+01 1.8220e+03 8.1523e+02 6.1393e+02
4.1500e+03 0.0000e+00 3.0000e+01 7.9700e+03 1.4490e+03 1.2372e+03
4.1500e+03 0.0000e+00 3.0000e+01 3.5920e+04 3.3371e+03 2.3354e+03
4.2500e+03 0.0000e+00 3.0000e+01 2.5000e+01 3.3654e+01 1.0105e+02
4.2500e+03 0.0000e+00 3.0000e+01 1.0000e+02 1.5157e+02 2.2765e+02
4.2500e+03 0.0000e+00 3.0000e+01 3.8200e+02 4.0264e+02 3.9492e+02
4.2500e+03 0.0000e+00 3.0000e+01 1.8220e+03 8.6620e+02 6.5394e+02
4.2500e+03 0.0000e+00 3.0000e+01 7.9700e+03 1.5165e+03 1.2091e+03
4.2500e+03 0.0000e+00 3.0000e+01 3.5920e+04 3.4664e+03 2.3093e+03
4.3500e+03 0.0000e+00 3.0000e+01 2.5000e+01 3.3576e+01 1.0142e+02
4.3500e+03 0.0000e+00 3.0000e+01 1.0000e+02 1.5846e+02 2.3143e+02
4.3500e+03 0.0000e+00 3.0000e+01 3.8200e+02 4.0159e+02 3.8246e+02
4.3500e+03 0.0000e+00 3.0000e+01 1.8220e+03 8.6142e+02 6.3126e+02
4.3500e+03 0.0000e+00 3.0000e+01 7.9700e+03 1.5162e+03 1.2114e+03
4.3500e+03 0.0000e+00 3.0000e+01 3.5920e+04 3.3137e+03 2.2144e+03
4.4500e+03 0.0000e+00 3.0000e+01 2.5000e+01 3.4776e+01 1.0141e+02
4.4500e+03 0.0000e+00 3.0000e+01 1.0000e+02 1.5225e+02 2.2300e+02
4.4500e+03 0.0000e+00 3.0000e+01 3.8200e+02 3.9676e+02 3.7819e+02
4.4500e+03 0.0000e+00 3.0000e+01 1.8220e+03 8.1450e+02 6.1102e+02
4.4500e+03 0.0000e+00 3.0000e+01 7.9700e+03 1.4486e+03 1.2716e+03
4.4500e+03 0.0000e+00 3.0000e+01 3.5920e+04 3.3660e+03 2.2948e+03
4.5500e+03 0.0000e+00 3.0000e+01 2.5000e+01 3.4121e+01 9.5521e+01
4.5500e+03 0.0000e+00 3.0000e+01 1.0000e+02 1.6145e+02 2.3608e+02
4.5500e+03 0.0000e+00 3.0000e+01 3.8200e+02 4.2364e+02 3.8655e+02
4.5500e+03 0.0000e+00 3.0000e+01 1.8220e+03 8.1406e+02 6.3658e+02
4.5500e+03 0.0000e+00 3.0000e+01 7.9700e+03 1.4570e+03 1.2900e+03
4.5500e+03 0.0000e+00 3.0000e+01 3.5920e+04 3.4149e+03 2.1524e+03
4.6500e+03 0.0000e+00 3.0000e+01 2.5000e+01 3.4467e+01 9.7138e+01
4.6500e+03 0.0000e+00 3.0000e+01 1.0000e+02 1.5450e+02 2.3106e+02
4.6500e+03 0.0000e+00 3.0000e+01 3.8200e+02 3.9514e+02 3.9777e+02
4.6500e+03 0.0000e+00 3.0000e+01 1.8220e+03 8.6718e+02 6.3396e+02
4.6500e+03 0.0000e+00 3.0000e+01 7.9700e+03 1.4706e+03 1.2195e+03
4.6500e+03 0.0000e+00 3.0000e+01 3.5920e+04 3.4807e+03 2.3525e+03
4.7500e+03 0.0000e+00 3.0000e+01 2.5000e+01 3.3207e+01 9.8880e+01
4.7500e+03 0.0000e+00 3.0000e+01 1.0000e+02 1.4988e+02 2.3539e+02
4.7500e+03 0.0000e+00 3.0000e+01 3.8200e+02 4.0340e+02 3.9794e+02
4.7500e+03 0.0000e+00 3.0000e+01 1.8220e+03 8.4609e+02 6.3119e+02
4.7500e+03 0.0000e+00 3.0000e+01 7.9700e+03 1.4689e+03 1.1983e+03
4.7500e+03 0.0000e+00 3.0000e+01 3.5920e+04 3.4940e+03 2.2171e+03
4.8500e+03 0.0000e+00 3.0000e+01 2.5000e+01 3.4779e+01 9.9084e+01
4.8500e+03 0.0000e+00 3.0000e+01 1.0000e+02 1.5775e+02 2.2696e+02
4.8500e+03 0.0000e+00 3.0000e+01 3.8200e+02 3.9410e+02 3.9095e+02
4.8500e+03 0.0000e+00 3.0000e+01 1.8220e+03 8.3368e+02 6.0159e+02
4.8500e+03 0.0000e+00 3.0000e+01 7.9700e+03 1.5280e+03 1.2594e+03
4.8500e+03 0.0000e+00 3.0000e+01 3.5920e+04 3.5144e+03 2.1560e+03
4.9500e+03 0.0000e+00 3.0000e+01 2.5000e+01 3.2323e+01 9.7960e+01
4.9500e+03 0.0000e+00 3.0000e+01 1.0000e+02 1.5280e+02 2.2044e+02
4.9500e+03 0.0000e+00 3.0000e+01 3.8200e+02 3.9462e+02 4.0785e+02
4.9500e+03 0.0000e+00 3.0000e+01 1.8220e+03 8.3445e+02 6.5278e+02
4.9500e+03 0.0000e+00 3.0000e+01 7.9700e+03 1.4292e+03 1.2587e+03
4.9500e+03 0.0000e+00 3.0000e+01 3.5920e+04 3.2742e+03 2.3152e+03
