# X Y Z FREQUENCY HZ_REAL HZ_IMAG
5.0000e+01 0.0000e+00 3.0000e+01 2.5000e+01 1.5561e+01 7.3063e+01
5.0000e+01 0.0000e+00 3.0000e+01 1.0000e+02 9.9654e+01 2.1472e+02
5.0000e+01 0.0000e+00 3.0000e+01 3.8200e+02 3.5373e+02 4.1649e+02
5.0000e+01 0.0000e+00 3.0000e+01 1.8220e+03 8.9994e+02 6.3685e+02
5.0000e+01 0.0000e+00 3.0000e+01 7.9700e+03 1.4665e+03 1.2245e+03
5.0000e+01 0.0000e+00 3.0000e+01 3.5920e+04 3.2547e+03 2.1838e+03
1.5000e+02 0.0000e+00 3.0000e+01 2.5000e+01 1.6285e+01 7.0700e+01
1.5000e+02 0.0000e+00 3.0000e+01 1.0000e+02 9.5965e+01 2.2131e+02
1.5000e+02 0.0000e+00 3.0000e+01 3.8200e+02 3.5836e+02 4.3311e+02
1.5000e+02 0.0000e+00 3.0000e+01 1.8220e+03 8.4719e+02 6.0938e+02
1.5000e+02 0.0000e+00 3.0000e+01 7.9700e+03 1.4183e+03 1.2198e+03
1.5000e+02 0.0000e+00 3.0000e+01 3.5920e+04 3.4137e+03 2.3240e+03
2.5000e+02 0.0000e+00 3.0000e+01 2.5000e+01 1.6392e+01 7.2179e+01
2.5000e+02 0.0000e+00 3.0000e+01 1.0000e+02 9.8134e+01 2.1843e+02
2.5000e+02 0.0000e+00 3.0000e+01 3.8200e+02 3.5393e+02 4.4946e+02
2.5000e+02 0.0000e+00 3.0000e+01 1.8220e+03 8.4203e+02 6.3168e+02
2.5000e+02 0.0000e+00 3.0000e+01 7.9700e+03 1.4133e+03 1.2315e+03
2.5000e+02 0.0000e+00 3.0000e+01 3.5920e+04 3.5157e+03 2.3165e+03
3.5000e+02 0.0000e+00 3.0000e+01 2.5000e+01 1.8857e+01 8.0513e+01
3.5000e+02 0.0000e+00 3.0000e+01 1.0000e+02 1.1432e+02 2.2437e+02
3.5000e+02 0.0000e+00 3.0000e+01 3.8200e+02 4.0259e+02 4.1278e+02
3.5000e+02 0.0000e+00 3.0000e+01 1.8220e+03 8.8633e+02 6.4585e+02
3.5000e+02 0.0000e+00 3.0000e+01 7.9700e+03 1.4867e+03 1.1906e+03
3.5000e+02 0.0000e+00 3.0000e+01 3.5920e+04 3.5288e+03 2.2727e+03
4.5000e+02 0.0000e+00 3.0000e+01 2.5000e+01 1.8902e+01 8.1743e+01
4.5000e+02 0.0000e+00 3.0000e+01 1.0000e+02 1.0918e+02 2.2519e+02
4.5000e+02 0.0000e+00 3.0000e+01 3.8200e+02 4.1079e+02 4.0986e+02
4.5000e+02 0.0000e+00 3.0000e+01 1.8220e+03 8.8794e+02 6.3930e+02
4.5000e+02 0.0000e+00 3.0000e+01 7.9700e+03 1.5318e+03 1.2565e+03
4.5000e+02 0.0000e+00 3.0000e+01 3.5920e+04 3.2634e+03 2.2734e+03
5.5000e+02 0.0000e+00 3.0000e+01 2.5000e+01 1.7717e+01 7.9497e+01
5.5000e+02 0.0000e+00 3.0000e+01 1.0000e+02 1.0667e+02 2.1911e+02
5.5000e+02 0.0000e+00 3.0000e+01 3.8200e+02 4.0485e+02 4.4563e+02
5.5000e+02 0.0000e+00 3.0000e+01 1.8220e+03 8.6406e+02 6.5253e+02
5.5000e+02 0.0000e+00 3.0000e+01 7.9700e+03 1.4993e+03 1.2346e+03
5.5000e+02 0.0000e+00 3.0000e+01 3.5920e+04 3.4554e+03 2.1993e+03
6.5000e+02 0.0000e+00 3.0000e+01 2.5000e+01 1.8008e+01 7.7561e+01
6.5000e+02 0.0000e+00 3.0000e+01 1.0000e+02 1.0899e+02 2.1666e+02
6.5000e+02 0.0000e+00 3.0000e+01 3.8200e+02 3.9400e+02 4.2997e+02
6.5000e+02 0.0000e+00 3.0000e+01 1.8220e+03 8.3591e+02 6.2778e+02
6.5000e+02 0.0000e+00 3.0000e+01 7.9700e+03 1.4783e+03 1.2987e+03
6.5000e+02 0.0000e+00 3.0000e+01 3.5920e+04 3.4832e+03 2.2544e+03
7.5000e+02 0.0000e+00 3.0000e+01 2.5000e+01 1.8656e+01 7.7798e+01
7.5000e+02 0.0000e+00 3.0000e+01 1.0000e+02 1.0567e+02 2.2466e+02
7.5000e+02 0.0000e+00 3.0000e+01 3.8200e+02 3.9312e+02 4.4081e+02
7.5000e+02 0.0000e+00 3.0000e+01 1.8220e+03 8.5509e+02 6.1378e+02
7.5000e+02 0.0000e+00 3.0000e+01 7.9700e+03 1.4888e+03 1.2422e+03
7.5000e+02 0.0000e+00 3.0000e+01 3.5920e+04 3.3077e+03 2.2202e+03
8.5000e+02 0.0000e+00 3.0000e+01 2.5000e+01 1.8836e+01 8.0905e+01
8.5000e+02 0.0000e+00 3.0000e+01 1.0000e+02 1.1231e+02 2.2075e+02
8.5000e+02 0.0000e+00 3.0000e+01 3.8200e+02 3.7777e+02 4.0902e+02
8.5000e+02 0.0000e+00 3.0000e+01 1.8220e+03 8.7496e+02 6.0597e+02
8.5000e+02 0.0000e+00 3.0000e+01 7.9700e+03 1.5305e+03 1.2888e+03
8.5000e+02 0.0000e+00 3.0000e+01 3.5920e+04 3.2479e+03 2.2589e+03
9.5000e+02 0.0000e+00 3.0000e+01 2.5000e+01 2.0330e+01 8.3746e+01
9.5000e+02 0.0000e+00 3.0000e+01 1.0000e+02 1.2344e+02 2.2702e+02
9.5000e+02 0.0000e+00 3.0000e+01 3.8200e+02 3.8884e+02 4.2311e+02
9.5000e+02 0.0000e+00 3.0000e+01 1.8220e+03 8.5490e+02 6.5160e+02
9.5000e+02 0.0000e+00 3.0000e+01 7.9700e+03 1.4802e+03 1.2739e+03
9.5000e+02 0.0000e+00 3.0000e+01 3.5920e+04 3.3631e+03 2.2531e+03
1.0500e+03 0.0000e+00 3.0000e+01 2.5000e+01 2.1140e+01 8.7758e+01
1.0500e+03 0.0000e+00 3.0000e+01 1.0000e+02 1.2478e+02 2.2733e+02
1.0500e+03 0.0000e+00 3.0000e+01 3.8200e+02 3.8936e+02 4.1042e+02
1.0500e+03 0.0000e+00 3.0000e+01 1.8220e+03 8.8664e+02 6.1755e+02
1.0500e+03 0.0000e+00 3.0000e+01 7.9700e+03 1.4045e+03 1.2606e+03
1.0500e+03 0.0000e+00 3.0000e+01 3.5920e+04 3.4788e+03 2.2727e+03
1.1500e+03 0.0000e+00 3.0000e+01 2.5000e+01 2.0056e+01 8.6298e+01
1.1500e+03 0.0000e+00 3.0000e+01 1.0000e+02 1.1782e+02 2.3667e+02
1.1500e+03 0.0000e+00 3.0000e+01 3.8200e+02 3.9495e+02 4.1241e+02
1.1500e+03 0.0000e+00 3.0000e+01 1.8220e+03 8.8090e+02 6.4294e+02
1.1500e+03 0.0000e+00 3.0000e+01 7.9700e+03 1.4496e+03 1.2874e+03
1.1500e+03 0.0000e+00 3.0000e+01 3.5920e+04 3.4347e+03 2.2757e+03
1.2500e+03 0.0000e+00 3.0000e+01 2.5000e+01 2.0941e+01 8.2135e+01
1.2500e+03 0.0000e+00 3.0000e+01 1.0000e+02 1.1761e+02 2.3778e+02
1.2500e+03 0.0000e+00 3.0000e+01 3.8200e+02 3.8776e+02 3.9936e+02
1.2500e+03 0.0000e+00 3.0000e+01 1.8220e+03 8.0938e+02 5.9687e+02
1.2500e+03 0.0000e+00 3.0000e+01 7.9700e+03 1.4139e+03 1.2824e+03
1.2500e+03 0.0000e+00 3.0000e+01 3.5920e+04 3.3855e+03 2.3509e+03
1.3500e+03 0.0000e+00 3.0000e+01 2.5000e+01 2.1314e+01 8.5238e+01
1.3500e+03 0.0000e+00 3.0000e+01 1.0000e+02 1.1977e+02 2.4393e+02
1.3500e+03 0.0000e+00 3.0000e+01 3.8200e+02 3.9963e+02 4.2660e+02
1.3500e+03 0.0000e+00 3.0000e+01 1.8220e+03 8.8033e+02 6.0142e+02
1.3500e+03 0.0000e+00 3.0000e+01 7.9700e+03 1.4043e+03 1.2479e+03
1.3500e+03 0.0000e+00 3.0000e+01 3.5920e+04 3.3480e+03 2.1586e+03
1.4500e+03 0.0000e+00 3.0000e+01 2.5000e+01 1.9946e+01 8.6023e+01
1.4500e+03 0.0000e+00 3.0000e+01 1.0000e+02 1.2601e+02 2.2787e+02
1.4500e+03 0.0000e+00 3.0000e+01 3.8200e+02 3.8966e+02 3.9549e+02
1.4500e+03 0.0000e+00 3.0000e+01 1.8220e+03 8.7106e+02 6.3060e+02
1.4500e+03 0.0000e+00 3.0000e+01 7.9700e+03 1.4704e+03 1.2033e+03
1.4500e+03 0.0000e+00 3.0000e+01 3.5920e+04 3.4662e+03 2.2213e+03
1.5500e+03 0.0000e+00 3.0000e+01 2.5000e+01 2.0878e+01 8.5715e+01
1.5500e+03 0.0000e+00 3.0000e+01 1.0000e+02 1.2425e+02 2.2776e+02
1.5500e+03 0.0000e+00 3.0000e+01 3.8200e+02 4.0246e+02 4.2170e+02
1.5500e+03 0.0000e+00 3.0000e+01 1.8220e+03 8.2693e+02 5.9837e+02
1.5500e+03 0.0000e+00 3.0000e+01 7.9700e+03 1.5019e+03 1.2098e+03
1.5500e+03 0.0000e+00 3.0000e+01 3.5920e+04 3.4211e+03 2.1620e+03
1.6500e+03 0.0000e+00 3.0000e+01 2.5000e+01 2.4256e+01 8.7728e+01
1.6500e+03 0.0000e+00 3.0000e+01 1.0000e+02 1.2728e+02 2.3200e+02
1.6500e+03 0.0000e+00 3.0000e+01 3.8200e+02 4.1605e+02 4.1536e+02
1.6500e+03 0.0000e+00 3.0000e+01 1.8220e+03 8.5336e+02 6.5357e+02
1.6500e+03 0.0000e+00 3.0000e+01 7.9700e+03 1.4897e+03 1.1899e+03
1.6500e+03 0.0000e+00 3.0000e+01 3.5920e+04 3.4894e+03 2.2648e+03
1.7500e+03 0.0000e+00 3.0000e+01 2.5000e+01 2.2962e+01 8.7339e+01
1.7500e+03 0.0000e+00 3.0000e+01 1.0000e+02 1.3791e+02 2.3032e+02
1.7500e+03 0.0000e+00 3.0000e+01 3.8200e+02 3.9318e+02 4.1707e+02
1.7500e+03 0.0000e+00 3.0000e+01 1.8220e+03 8.6909e+02 6.0173e+02
1.7500e+03 0.0000e+00 3.0000e+01 7.9700e+03 1.4601e+03 1.2544e+03
1.7500e+03 0.0000e+00 3.0000e+01 3.5920e+04 3.4250e+03 2.3260e+03
1.8500e+03 0.0000e+00 3.0000e+01 2.5000e+01 2.2744e+01 8.5230e+01
1.8500e+03 0.0000e+00 3.0000e+01 1.0000e+02 1.2686e+02 2.4730e+02
1.8500e+03 0.0000e+00 3.0000e+01 3.8200e+02 4.0922e+02 3.8977e+02
1.8500e+03 0.0000e+00 3.0000e+01 1.8220e+03 8.7665e+02 6.4030e+02
1.8500e+03 0.0000e+00 3.0000e+01 7.9700e+03 1.4853e+03 1.2641e+03
1.8500e+03 0.0000e+00 3.0000e+01 3.5920e+04 3.4519e+03 2.3225e+03
1.9500e+03 0.0000e+00 3.0000e+01 2.5000e+01 2.3196e+01 8.9086e+01
1.9500e+03 0.0000e+00 3.0000e+01 1.0000e+02 1.3634e+02 2.3879e+02
1.9500e+03 0.0000e+00 3.0000e+01 3.8200e+02 3.9739e+02 3.9222e+02
1.9500e+03 0.0000e+00 3.0000e+01 1.8220e+03 8.6846e+02 6.0673e+02
1.9500e+03 0.0000e+00 3.0000e+01 7.9700e+03 1.4440e+03 1.2716e+03
1.9500e+03 0.0000e+00 3.0000e+01 3.5920e+04 3.3682e+03 2.1771e+03
2.0500e+03 0.0000e+00 3.0000e+01 2.5000e+01 2.4329e+01 8.5399e+01
2.0500e+03 0.0000e+00 3.0000e+01 1.0000e+02 1.2993e+02 2.2589e+02
2.0500e+03 0.0000e+00 3.0000e+01 3.8200e+02 4.1592e+02 4.1728e+02
2.0500e+03 0.0000e+00 3.0000e+01 1.8220e+03 8.5150e+02 6.2858e+02
2.0500e+03 0.0000e+00 3.0000e+01 7.9700e+03 1.4427e+03 1.1886e+03
2.0500e+03 0.0000e+00 3.0000e+01 3.5920e+04 3.3953e+03 2.1966e+03
2.1500e+03 0.0000e+00 3.0000e+01 2.5000e+01 2.2682e+01 9.1287e+01
2.1500e+03 0.0000e+00 3.0000e+01 1.0000e+02 1.3172e+02 2.2652e+02
2.1500e+03 0.0000e+00 3.0000e+01 3.8200e+02 4.0427e+02 4.1030e+02
2.1500e+03 0.0000e+00 3.0000e+01 1.8220e+03 8.5485e+02 6.5238e+02
2.1500e+03 0.0000e+00 3.0000e+01 7.9700e+03 1.4343e+03 1.2714e+03
2.1500e+03 0.0000e+00 3.0000e+01 3.5920e+04 3.3369e+03 2.2240e+03
2.2500e+03 0.0000e+00 3.0000e+01 2.5000e+01 2.6161e+01 9.0418e+01
2.2500e+03 0.0000e+00 3.0000e+01 1.0000e+02 1.4350e+02 2.4137e+02
2.2500e+03 0.0000e+00 3.0000e+01 3.8200e+02 4.2971e+02 3.8401e+02
2.2500e+03 0.0000e+00 3.0000e+01 1.8220e+03 8.4163e+02 6.1020e+02
2.2500e+03 0.0000e+00 3.0000e+01 7.9700e+03 1.4274e+03 1.2618e+03
2.2500e+03 0.0000e+00 3.0000e+01 3.5920e+04 3.4453e+03 2.2199e+03
2.3500e+03 0.0000e+00 3.0000e+01 2.5000e+01 2.5824e+01 9.3751e+01
2.3500e+03 0.0000e+00 3.0000e+01 1.0000e+02 1.4506e+02 2.3222e+02
2.3500e+03 0.0000e+00 3.0000e+01 3.8200e+02 4.1784e+02 4.1014e+02
2.3500e+03 0.0000e+00 3.0000e+01 1.8220e+03 8.2827e+02 6.3451e+02
2.3500e+03 0.0000e+00 3.0000e+01 7.9700e+03 1.4124e+03 1.2236e+03
2.3500e+03 0.0000e+00 3.0000e+01 3.5920e+04 3.4451e+03 2.2164e+03
2.4500e+03 0.0000e+00 3.0000e+01 2.5000e+01 2.7128e+01 9.1509e+01
2.4500e+03 0.0000e+00 3.0000e+01 1.0000e+02 1.4200e+02 2.4436e+02
2.4500e+03 0.0000e+00 3.0000e+01 3.8200e+02 4.0172e+02 3.9723e+02
2.4500e+03 0.0000e+00 3.0000e+01 1.8220e+03 8.5841e+02 6.4127e+02
2.4500e+03 0.0000e+00 3.0000e+01 7.9700e+03 1.4174e+03 1.2074e+03
2.4500e+03 0.0000e+00 3.0000e+01 3.5920e+04 3.3279e+03 2.2245e+03
2.5500e+03 0.0000e+00 3.0000e+01 2.5000e+01 2.4961e+01 9.1067e+01
2.5500e+03 0.0000e+00 3.0000e+01 1.0000e+02 1.3892e+02 2.4157e+02
2.5500e+03 0.0000e+00 3.0000e+01 3.8200e+02 3.9632e+02 3.8124e+02
2.5500e+03 0.0000e+00 3.0000e+01 1.8220e+03 8.6008e+02 6.5250e+02
2.5500e+03 0.0000e+00 3.0000e+01 7.9700e+03 1.4442e+03 1.2071e+03
2.5500e+03 0.0000e+00 3.0000e+01 3.5920e+04 3.2710e+03 2.1724e+03
2.6500e+03 0.0000e+00 3.0000e+01 2.5000e+01 2.6516e+01 9.5114e+01
2.6500e+03 0.0000e+00 3.0000e+01 1.0000e+02 1.4299e+02 2.4412e+02
2.6500e+03 0.0000e+00 3.0000e+01 3.8200e+02 4.0378e+02 3.9595e+02
2.6500e+03 0.0000e+00 3.0000e+01 1.8220e+03 8.8014e+02 6.3597e+02
2.6500e+03 0.0000e+00 3.0000e+01 7.9700e+03 1.5312e+03 1.2392e+03
2.6500e+03 0.0000e+00 3.0000e+01 3.5920e+04 3.3194e+03 2.1802e+03
2.7500e+03 0.0000e+00 3.0000e+01 2.5000e+01 2.6423e+01 9.0419e+01
2.7500e+03 0.0000e+00 3.0000e+01 1.0000e+02 1.3558e+02 2.4332e+02
2.7500e+03 0.0000e+00 3.0000e+01 3.8200e+02 4.0619e+02 4.0388e+02
2.7500e+03 0.0000e+00 3.0000e+01 1.8220e+03 8.7984e+02 6.1678e+02
2.7500e+03 0.0000e+00 3.0000e+01 7.9700e+03 1.5313e+03 1.2579e+03
2.7500e+03 0.0000e+00 3.0000e+01 3.5920e+04 3.2845e+03 2.2628e+03
2.8500e+03 0.0000e+00 3.0000e+01 2.5000e+01 2.8640e+01 9.2830e+01
2.8500e+03 0.0000e+00 3.0000e+01 1.0000e+02 1.4454e+02 2.3252e+02
2.8500e+03 0.0000e+00 3.0000e+01 3.8200e+02 4.2883e+02 3.8268e+02
2.8500e+03 0.0000e+00 3.0000e+01 1.8220e+03 8.0909e+02 6.1213e+02
2.8500e+03 0.0000e+00 3.0000e+01 7.9700e+03 1.5245e+03 1.2201e+03
2.8500e+03 0.0000e+00 3.0000e+01 3.5920e+04 3.4370e+03 2.2523e+03
2.9500e+03 0.0000e+00 3.0000e+01 2.5000e+01 2.9656e+01 9.4727e+01
2.9500e+03 0.0000e+00 3.0000e+01 1.0000e+02 1.5211e+02 2.3842e+02
2.9500e+03 0.0000e+00 3.0000e+01 3.8200e+02 4.0291e+02 3.8972e+02
2.9500e+03 0.0000e+00 3.0000e+01 1.8220e+03 8.6296e+02 6.1815e+02
2.9500e+03 0.0000e+00 3.0000e+01 7.9700e+03 1.4794e+03 1.2247e+03
2.9500e+03 0.0000e+00 3.0000e+01 3.5920e+04 3.5165e+03 2.1971e+03
3.0500e+03 0.0000e+00 3.0000e+01 2.5000e+01 2.9775e+01 9.0680e+01
3.0500e+03 0.0000e+00 3.0000e+01 1.0000e+02 1.4606e+02 2.3130e+02
3.0500e+03 0.0000e+00 3.0000e+01 3.8200e+02 3.9361e+02 3.7660e+02
3.0500e+03 0.0000e+00 3.0000e+01 1.8220e+03 8.6112e+02 6.5635e+02
3.0500e+03 0.0000e+00 3.0000e+01 7.9700e+03 1.5378e+03 1.2661e+03
3.0500e+03 0.0000e+00 3.0000e+01 3.5920e+04 3.2849e+03 2.2238e+03
3.1500e+03 0.0000e+00 3.0000e+01 2.5000e+01 2.8428e+01 9.0781e+01
3.1500e+03 0.0000e+00 3.0000e+01 1.0000e+02 1.5231e+02 2.2810e+02
3.1500e+03 0.0000e+00 3.0000e+01 3.8200e+02 4.0593e+02 3.7869e+02
3.1500e+03 0.0000e+00 3.0000e+01 1.8220e+03 8.1711e+02 6.2440e+02
3.1500e+03 0.0000e+00 3.0000e+01 7.9700e+03 1.4691e+03 1.2789e+03
3.1500e+03 0.0000e+00 3.0000e+01 3.5920e+04 3.4693e+03 2.2844e+03
3.2500e+03 0.0000e+00 3.0000e+01 2.5000e+01 2.8798e+01 9.1693e+01
3.2500e+03 0.0000e+00 3.0000e+01 1.0000e+02 1.4319e+02 2.4453e+02
3.2500e+03 0.0000e+00 3.0000e+01 3.8200e+02 4.2887e+02 4.1146e+02
3.2500e+03 0.0000e+00 3.0000e+01 1.8220e+03 8.7831e+02 6.2907e+02
3.2500e+03 0.0000e+00 3.0000e+01 7.9700e+03 1.4414e+03 1.2552e+03
3.2500e+03 0.0000e+00 3.0000e+01 3.5920e+04 3.4399e+03 2.2089e+03
3.3500e+03 0.0000e+00 3.0000e+01 2.5000e+01 2.8183e+01 9.7693e+01
3.3500e+03 0.0000e+00 3.0000e+01 1.0000e+02 1.5169e+02 2.3884e+02
3.3500e+03 0.0000e+00 3.0000e+01 3.8200e+02 4.0871e+02 3.9974e+02
3.3500e+03 0.0000e+00 3.0000e+01 1.8220e+03 8.3891e+02 6.1694e+02
3.3500e+03 0.0000e+00 3.0000e+01 7.9700e+03 1.5331e+03 1.2036e+03
3.3500e+03 0.0000e+00 3.0000e+01 3.5920e+04 3.5340e+03 2.1717e+03
3.4500e+03 0.0000e+00 3.0000e+01 2.5000e+01 3.1970e+01 9.5321e+01
3.4500e+03 0.0000e+00 3.0000e+01 1.0000e+02 1.4671e+02 2.4408e+02
3.4500e+03 0.0000e+00 3.0000e+01 3.8200e+02 4.2004e+02 3.8401e+02
3.4500e+03 0.0000e+00 3.0000e+01 1.8220e+03 8.4492e+02 6.0056e+02
3.4500e+03 0.0000e+00 3.0000e+01 7.9700e+03 1.4979e+03 1.2989e+03
3.4500e+03 0.0000e+00 3.0000e+01 3.5920e+04 3.2765e+03 2.1631e+03
3.5500e+03 0.0000e+00 3.0000e+01 2.5000e+01 3.0496e+01 9.7982e+01
3.5500e+03 0.0000e+00 3.0000e+01 1.0000e+02 1.5782e+02 2.3187e+02
3.5500e+03 0.0000e+00 3.0000e+01 3.8200e+02 4.1993e+02 4.0502e+02
3.5500e+03 0.0000e+00 3.0000e+01 1.8220e+03 8.2291e+02 6.0550e+02
3.5500e+03 0.0000e+00 3.0000e+01 7.9700e+03 1.4764e+03 1.2261e+03
3.5500e+03 0.0000e+00 3.0000e+01 3.5920e+04 3.4305e+03 2.2947e+03
3.6500e+03 0.0000e+00 3.0000e+01 2.5000e+01 3.0463e+01 9.3531e+01
3.6500e+03 0.0000e+00 3.0000e+01 1.0000e+02 1.4796e+02 2.4378e+02
3.6500e+03 0.0000e+00 3.0000e+01 3.8200e+02 4.1825e+02 4.0415e+02
3.6500e+03 0.0000e+00 3.0000e+01 1.8220e+03 8.5540e+02 6.5326e+02
3.6500e+03 0.0000e+00 3.0000e+01 7.9700e+03 1.4830e+03 1.2765e+03
3.6500e+03 0.0000e+00 3.0000e+01 3.5920e+04 3.3019e+03 2.2166e+03
3.7500e+03 0.0000e+00 3.0000e+01 2.5000e+01 3.1269e+01 9.7643e+01
3.7500e+03 0.0000e+00 3.0000e+01 1.0000e+02 1.5165e+02 2.3032e+02
3.7500e+03 0.0000e+00 3.0000e+01 3.8200e+02 4.1423e+02 3.8379e+02
3.7500e+03 0.0000e+00 3.0000e+01 1.8220e+03 8.4444e+02 6.1234e+02
3.7500e+03 0.0000e+00 3.0000e+01 7.9700e+03 1.4035e+03 1.1978e+03
3.7500e+03 0.0000e+00 3.0000e+01 3.5920e+04 3.2333e+03 2.2372e+03
3.8500e+03 0.0000e+00 3.0000e+01 2.5000e+01 3.0524e+01 9.4156e+01
3.8500e+03 0.0000e+00 3.0000e+01 1.0000e+02 1.5387e+02 2.3425e+02
3.8500e+03 0.0000e+00 3.0000e+01 3.8200e+02 4.0168e+02 3.8772e+02
3.8500e+03 0.0000e+00 3.0000e+01 1.8220e+03 8.3136e+02 6.1477e+02
3.8500e+03 0.0000e+00 3.0000e+01 7.9700e+03 1.4593e+03 1.2416e+03
3.8500e+03 0.0000e+00 3.0000e+01 3.5920e+04 3.2442e+03 2.2153e+03
3.9500e+03 0.0000e+00 3.0000e+01 2.5000e+01 3.1851e+01 9.7030e+01
3.9500e+03 0.0000e+00 3.0000e+01 1.0000e+02 1.4916e+02 2.3752e+02
3.9500e+03 0.0000e+00 3.0000e+01 3.8200e+02 4.1208e+02 3.8027e+02
3.9500e+03 0.0000e+00 3.0000e+01 1.8220e+03 8.2678e+02 6.4137e+02
3.9500e+03 0.0000e+00 3.0000e+01 7.9700e+03 1.5417e+03 1.2923e+03
3.9500e+03 0.0000e+00 3.0000e+01 3.5920e+04 3.5272e+03 2.2213e+03
4.0500e+03 0.0000e+00 3.0000e+01 2.5000e+01 3.4234e+01 9.8331e+01
4.0500e+03 0.0000e+00 3.0000e+01 1.0000e+02 1.4946e+02 2.3174e+02
4.0500e+03 0.0000e+00 3.0000e+01 3.8200e+02 4.1886e+02 3.8262e+02
4.0500e+03 0.0000e+00 3.0000e+01 1.8220e+03 8.4294e+02 6.3423e+02
4.0500e+03 0.0000e+00 3.0000e+01 7.9700e+03 1.4224e+03 1.2203e+03
4.0500e+03 0.0000e+00 3.0000e+01 3.5920e+04 3.2769e+03 2.3473e+03
4.1500e+03 0.0000e+00 3.0000e+01 2.5000e+01 3.4654e+01 9.3142e+01
4.1500e+03 0.0000e+00 3.0000e+01 1.0000e+02 1.5415e+02 2.3197e+02
4.1500e+03 0.0000e+00 3.0000e+01 3.8200e+02 4.2549e+02 4.0611e+02
4.1500e+03 0.0000e+00 3.0000e+01 1.8220e+03 8.5194e+02 6.5593e+02
4.1500e+03 0.0000e+00 3.0000e+01 7.9700e+03 1.4058e+03 1.1974e+03
4.1500e+03 0.0000e+00 3.0000e+01 3.5920e+04 3.3114e+03 2.3431e+03
4.2500e+03 0.0000e+00 3.0000e+01 2.5000e+01 3.3202e+01 9.6795e+01
4.2500e+03 0.0000e+00 3.0000e+01 1.0000e+02 1.5350e+02 2.2550e+02
4.2500e+03 0.0000e+00 3.0000e+01 3.8200e+02 4.1938e+02 3.8571e+02
4.2500e+03 0.0000e+00 3.0000e+01 1.8220e+03 8.5105e+02 6.0155e+02
4.2500e+03 0.0000e+00 3.0000e+01 7.9700e+03 1.5201e+03 1.2406e+03
4.2500e+03 0.0000e+00 3.0000e+01 3.5920e+04 3.4771e+03 2.2304e+03
4.3500e+03 0.0000e+00 3.0000e+01 2.5000e+01 3.4167e+01 1.0133e+02
4.3500e+03 0.0000e+00 3.0000e+01 1.0000e+02 1.4944e+02 2.3042e+02
4.3500e+03 0.0000e+00 3.0000e+01 3.8200e+02 4.2371e+02 4.0409e+02
4.3500e+03 0.0000e+00 3.0000e+01 1.8220e+03 8.0824e+02 6.0086e+02
4.3500e+03 0.0000e+00 3.0000e+01 7.9700e+03 1.4785e+03 1.2490e+03
4.3500e+03 0.0000e+00 3.0000e+01 3.5920e+04 3.3271e+03 2.3233e+03
4.4500e+03 0.0000e+00 3.0000e+01 2.5000e+01 3.2715e+01 9.3959e+01
4.4500e+03 0.0000e+00 3.0000e+01 1.0000e+02 1.4989e+02 2.3371e+02
4.4500e+03 0.0000e+00 3.0000e+01 3.8200e+02 3.9421e+02 3.8688e+02
4.4500e+03 0.0000e+00 3.0000e+01 1.8220e+03 8.8025e+02 6.4934e+02
4.4500e+03 0.0000e+00 3.0000e+01 7.9700e+03 1.4898e+03 1.2296e+03
4.4500e+03 0.0000e+00 3.0000e+01 3.5920e+04 3.4593e+03 2.3166e+03
4.5500e+03 0.0000e+00 3.0000e+01 2.5000e+01 3.5050e+01 1.0022e+02
4.5500e+03 0.0000e+00 3.0000e+01 1.0000e+02 1.5451e+02 2.2164e+02
4.5500e+03 0.0000e+00 3.0000e+01 3.8200e+02 4.1406e+02 3.7677e+02
4.5500e+03 0.0000e+00 3.0000e+01 1.8220e+03 8.4286e+02 6.2345e+02
4.5500e+03 0.0000e+00 3.0000e+01 7.9700e+03 1.4197e+03 1.2131e+03
4.5500e+03 0.0000e+00 3.0000e+01 3.5920e+04 3.4734e+03 2.3417e+03
4.6500e+03 0.0000e+00 3.0000e+01 2.5000e+01 3.6350e+01 1.0171e+02
4.6500e+03 0.0000e+00 3.0000e+01 1.0000e+02 1.4993e+02 2.2551e+02
4.6500e+03 0.0000e+00 3.0000e+01 3.8200e+02 3.8956e+02 3.7807e+02
4.6500e+03 0.0000e+00 3.0000e+01 1.8220e+03 8.5167e+02 6.0843e+02
4.6500e+03 0.0000e+00 3.0000e+01 7.9700e+03 1.4650e+03 1.2287e+03
4.6500e+03 0.0000e+00 3.0000e+01 3.5920e+04 3.3152e+03 2.2060e+03
4.7500e+03 0.0000e+00 3.0000e+01 2.5000e+01 3.4199e+01 9.4341e+01
4.7500e+03 0.0000e+00 3.0000e+01 1.0000e+02 1.4800e+02 2.3700e+02
4.7500e+03 0.0000e+00 3.0000e+01 3.8200e+02 3.9472e+02 4.0252e+02
4.7500e+03 0.0000e+00 3.0000e+01 1.8220e+03 8.1894e+02 6.5735e+02
4.7500e+03 0.0000e+00 3.0000e+01 7.9700e+03 1.4595e+03 1.2827e+03
4.7500e+03 0.0000e+00 3.0000e+01 3.5920e+04 3.3888e+03 2.2900e+03
4.8500e+03 0.0000e+00 3.0000e+01 2.5000e+01 3.4664e+01 9.8688e+01
4.8500e+03 0.0000e+00 3.0000e+01 1.0000e+02 1.5775e+02 2.3082e+02
4.8500e+03 0.0000e+00 3.0000e+01 3.8200e+02 4.1713e+02 4.1103e+02
4.8500e+03 0.0000e+00 3.0000e+01 1.8220e+03 8.8533e+02 6.5462e+02
4.8500e+03 0.0000e+00 3.0000e+01 7.9700e+03 1.4043e+03 1.2860e+03
4.8500e+03 0.0000e+00 3.0000e+01 3.5920e+04 3.4568e+03 2.1674e+03
4.9500e+03 0.0000e+00 3.0000e+01 2.5000e+01 3.5407e+01 9.3684e+01
4.9500e+03 0.0000e+00 3.0000e+01 1.0000e+02 1.5285e+02 2.2361e+02
4.9500e+03 0.0000e+00 3.0000e+01 3.8200e+02 4.0871e+02 3.7862e+02
4.9500e+03 0.0000e+00 3.0000e+01 1.8220e+03 8.6370e+02 6.0867e+02
4.9500e+03 0.0000e+00 3.0000e+01 7.9700e+03 1.5088e+03 1.2338e+03
4.9500e+03 0.0000e+00 3.0000e+01 3.5920e+04 3.4352e+03 2.3234e+03
