# X Y Z FREQUENCY HZ_REAL HZ_IMAG
5.0000e+01 0.0000e+00 3.0000e+01 2.5000e+01 1.5280e+01 7.1754e+01
5.0000e+01 0.0000e+00 3.0000e+01 1.0000e+02 9.5846e+01 2.1411e+02
5.0000e+01 0.0000e+00 3.0000e+01 3.8200e+02 3.6227e+02 4.3291e+02
5.0000e+01 0.0000e+00 3.0000e+01 1.8220e+03 8.8820e+02 6.4558e+02
5.0000e+01 0.0000e+00 3.0000e+01 7.9700e+03 1.4225e+03 1.2431e+03
5.0000e+01 0.0000e+00 3.0000e+01 3.5920e+04 3.4605e+03 2.1495e+03
1.5000e+02 0.0000e+00 3.0000e+01 2.5000e+01 1.5768e+01 6.9812e+01
1.5000e+02 0.0000e+00 3.0000e+01 1.0000e+02 9.6237e+01 2.2587e+02
1.5000e+02 0.0000e+00 3.0000e+01 3.8200e+02 3.6392e+02 4.4268e+02
1.5000e+02 0.0000e+00 3.0000e+01 1.8220e+03 8.9491e+02 6.3286e+02
1.5000e+02 0.0000e+00 3.0000e+01 7.9700e+03 1.5410e+03 1.2635e+03
1.5000e+02 0.0000e+00 3.0000e+01 3.5920e+04 3.4158e+03 2.3405e+03
2.5000e+02 0.0000e+00 3.0000e+01 2.5000e+01 1.6098e+01 7.4800e+01
2.5000e+02 0.0000e+00 3.0000e+01 1.0000e+02 9.4556e+01 2.1745e+02
2.5000e+02 0.0000e+00 3.0000e+01 3.8200e+02 3.6545e+02 4.3713e+02
2.5000e+02 0.0000e+00 3.0000e+01 1.8220e+03 9.0331e+02 6.2917e+02
2.5000e+02 0.0000e+00 3.0000e+01 7.9700e+03 1.4053e+03 1.2136e+03
2.5000e+02 0.0000e+00 3.0000e+01 3.5920e+04 3.3182e+03 2.2035e+03
3.5000e+02 0.0000e+00 3.0000e+01 2.5000e+01 1.6105e+01 7.1437e+01
3.5000e+02 0.0000e+00 3.0000e+01 1.0000e+02 9.1544e+01 2.0931e+02
3.5000e+02 0.0000e+00 3.0000e+01 3.8200e+02 3.6090e+02 4.2298e+02
3.5000e+02 0.0000e+00 3.0000e+01 1.8220e+03 8.6839e+02 6.0774e+02
3.5000e+02 0.0000e+00 3.0000e+01 7.9700e+03 1.4956e+03 1.2963e+03
3.5000e+02 0.0000e+00 3.0000e+01 3.5920e+04 3.4604e+03 2.3086e+03
4.5000e+02 0.0000e+00 3.0000e+01 2.5000e+01 1.7428e+01 8.0162e+01
4.5000e+02 0.0000e+00 3.0000e+01 1.0000e+02 1.1290e+02 2.2262e+02
4.5000e+02 0.0000e+00 3.0000e+01 3.8200e+02 3.8261e+02 4.1162e+02
4.5000e+02 0.0000e+00 3.0000e+01 1.8220e+03 8.2819e+02 6.4240e+02
4.5000e+02 0.0000e+00 3.0000e+01 7.9700e+03 1.4115e+03 1.2248e+03
4.5000e+02 0.0000e+00 3.0000e+01 3.5920e+04 3.2938e+03 2.2347e+03
5.5000e+02 0.0000e+00 3.0000e+01 2.5000e+01 1.8401e+01 7.8564e+01
5.5000e+02 0.0000e+00 3.0000e+01 1.0000e+02 1.0653e+02 2.3669e+02
5.5000e+02 0.0000e+00 3.0000e+01 3.8200e+02 3.9997e+02 4.1289e+02
5.5000e+02 0.0000e+00 3.0000e+01 1.8220e+03 8.8916e+02 6.3606e+02
5.5000e+02 0.0000e+00 3.0000e+01 7.9700e+03 1.4433e+03 1.1904e+03
5.5000e+02 0.0000e+00 3.0000e+01 3.5920e+04 3.4546e+03 2.1655e+03
6.5000e+02 0.0000e+00 3.0000e+01 2.5000e+01 1.8009e+01 8.0870e+01
6.5000e+02 0.0000e+00 3.0000e+01 1.0000e+02 1.1019e+02 2.2602e+02
6.5000e+02 0.0000e+00 3.0000e+01 3.8200e+02 3.9613e+02 4.0803e+02
6.5000e+02 0.0000e+00 3.0000e+01 1.8220e+03 8.6160e+02 6.1471e+02
6.5000e+02 0.0000e+00 3.0000e+01 7.9700e+03 1.4279e+03 1.2277e+03
6.5000e+02 0.0000e+00 3.0000e+01 3.5920e+04 3.2992e+03 2.2269e+03
7.5000e+02 0.0000e+00 3.0000e+01 2.5000e+01 1.7765e+01 7.9023e+01
7.5000e+02 0.0000e+00 3.0000e+01 1.0000e+02 1.0753e+02 2.2891e+02
7.5000e+02 0.0000e+00 3.0000e+01 3.8200e+02 4.0875e+02 4.2091e+02
7.5000e+02 0.0000e+00 3.0000e+01 1.8220e+03 8.6859e+02 6.5185e+02
7.5000e+02 0.0000e+00 3.0000e+01 7.9700e+03 1.4025e+03 1.1997e+03
7.5000e+02 0.0000e+00 3.0000e+01 3.5920e+04 3.3969e+03 2.2991e+03
8.5000e+02 0.0000e+00 3.0000e+01 2.5000e+01 2.0218e+01 8.6919e+01
8.5000e+02 0.0000e+00 3.0000e+01 1.0000e+02 1.1860e+02 2.2836e+02
8.5000e+02 0.0000e+00 3.0000e+01 3.8200e+02 3.9235e+02 4.2720e+02
8.5000e+02 0.0000e+00 3.0000e+01 1.8220e+03 8.4004e+02 6.3222e+02
8.5000e+02 0.0000e+00 3.0000e+01 7.9700e+03 1.4934e+03 1.1886e+03
8.5000e+02 0.0000e+00 3.0000e+01 3.5920e+04 3.2961e+03 2.2543e+03
9.5000e+02 0.0000e+00 3.0000e+01 2.5000e+01 2.1601e+01 8.4265e+01
9.5000e+02 0.0000e+00 3.0000e+01 1.0000e+02 1.1705e+02 2.3825e+02
9.5000e+02 0.0000e+00 3.0000e+01 3.8200e+02 4.0870e+02 3.9716e+02
9.5000e+02 0.0000e+00 3.0000e+01 1.8220e+03 8.2638e+02 6.3799e+02
9.5000e+02 0.0000e+00 3.0000e+01 7.9700e+03 1.5078e+03 1.2871e+03
9.5000e+02 0.0000e+00 3.0000e+01 3.5920e+04 3.4681e+03 2.1494e+03
1.0500e+03 0.0000e+00 3.0000e+01 2.5000e+01 2.1276e+01 8.1828e+01
1.0500e+03 0.0000e+00 3.0000e+01 1.0000e+02 1.1808e+02 2.4129e+02
1.0500e+03 0.0000e+00 3.0000e+01 3.8200e+02 4.0030e+02 4.2400e+02
1.0500e+03 0.0000e+00 3.0000e+01 1.8220e+03 8.5306e+02 6.0452e+02
1.0500e+03 0.0000e+00 3.0000e+01 7.9700e+03 1.5232e+03 1.2077e+03
1.0500e+03 0.0000e+00 3.0000e+01 3.5920e+04 3.5019e+03 2.2672e+03
1.1500e+03 0.0000e+00 3.0000e+01 2.5000e+01 2.1182e+01 8.0615e+01
1.1500e+03 0.0000e+00 3.0000e+01 1.0000e+02 1.2054e+02 2.2704e+02
1.1500e+03 0.0000e+00 3.0000e+01 3.8200e+02 4.2172e+02 4.0067e+02
1.1500e+03 0.0000e+00 3.0000e+01 1.8220e+03 8.7668e+02 6.2056e+02
1.1500e+03 0.0000e+00 3.0000e+01 7.9700e+03 1.4281e+03 1.2244e+03
1.1500e+03 0.0000e+00 3.0000e+01 3.5920e+04 3.3479e+03 2.1963e+03
1.2500e+03 0.0000e+00 3.0000e+01 2.5000e+01 2.1112e+01 8.6753e+01
1.2500e+03 0.0000e+00 3.0000e+01 1.0000e+02 1.2344e+02 2.2418e+02
1.2500e+03 0.0000e+00 3.0000e+01 3.8200e+02 4.1777e+02 3.9866e+02
1.2500e+03 0.0000e+00 3.0000e+01 1.8220e+03 8.6194e+02 6.0991e+02
1.2500e+03 0.0000e+00 3.0000e+01 7.9700e+03 1.4708e+03 1.2244e+03
1.2500e+03 0.0000e+00 3.0000e+01 3.5920e+04 3.2569e+03 2.2775e+03
1.3500e+03 0.0000e+00 3.0000e+01 2.5000e+01 2.1299e+01 8.5057e+01
1.3500e+03 0.0000e+00 3.0000e+01 1.0000e+02 1.1952e+02 2.4207e+02
1.3500e+03 0.0000e+00 3.0000e+01 3.8200e+02 3.9530e+02 3.9555e+02
1.3500e+03 0.0000e+00 3.0000e+01 1.8220e+03 8.4570e+02 6.5352e+02
1.3500e+03 0.0000e+00 3.0000e+01 7.9700e+03 1.4128e+03 1.2147e+03
1.3500e+03 0.0000e+00 3.0000e+01 3.5920e+04 3.3939e+03 2.1886e+03
1.4500e+03 0.0000e+00 3.0000e+01 2.5000e+01 2.3866e+01 8.5571e+01
1.4500e+03 0.0000e+00 3.0000e+01 1.0000e+02 1.3000e+02 2.3827e+02
1.4500e+03 0.0000e+00 3.0000e+01 3.8200e+02 4.0210e+02 4.0439e+02
1.4500e+03 0.0000e+00 3.0000e+01 1.8220e+03 8.1265e+02 6.0768e+02
1.4500e+03 0.0000e+00 3.0000e+01 7.9700e+03 1.4707e+03 1.2234e+03
1.4500e+03 0.0000e+00 3.0000e+01 3.5920e+04 3.5148e+03 2.1504e+03
1.5500e+03 0.0000e+00 3.0000e+01 2.5000e+01 2.4516e+01 8.6315e+01
1.5500e+03 0.0000e+00 3.0000e+01 1.0000e+02 1.3430e+02 2.3373e+02
1.5500e+03 0.0000e+00 3.0000e+01 3.8200e+02 4.0300e+02 4.2361e+02
1.5500e+03 0.0000e+00 3.0000e+01 1.8220e+03 8.7562e+02 6.2730e+02
1.5500e+03 0.0000e+00 3.0000e+01 7.9700e+03 1.4104e+03 1.2799e+03
1.5500e+03 0.0000e+00 3.0000e+01 3.5920e+04 3.4951e+03 2.1675e+03
1.6500e+03 0.0000e+00 3.0000e+01 2.5000e+01 2.3123e+01 9.1036e+01
1.6500e+03 0.0000e+00 3.0000e+01 1.0000e+02 1.3579e+02 2.2830e+02
1.6500e+03 0.0000e+00 3.0000e+01 3.8200e+02 4.0153e+02 4.1416e+02
1.6500e+03 0.0000e+00 3.0000e+01 1.8220e+03 8.2415e+02 6.0991e+02
1.6500e+03 0.0000e+00 3.0000e+01 7.9700e+03 1.4597e+03 1.2910e+03
1.6500e+03 0.0000e+00 3.0000e+01 3.5920e+04 3.4255e+03 2.3574e+03
1.7500e+03 0.0000e+00 3.0000e+01 2.5000e+01 2.3134e+01 8.6918e+01
1.7500e+03 0.0000e+00 3.0000e+01 1.0000e+02 1.3219e+02 2.4616e+02
1.7500e+03 0.0000e+00 3.0000e+01 3.8200e+02 3.9611e+02 4.2032e+02
1.7500e+03 0.0000e+00 3.0000e+01 1.8220e+03 8.7304e+02 6.3098e+02
1.7500e+03 0.0000e+00 3.0000e+01 7.9700e+03 1.5199e+03 1.2088e+03
1.7500e+03 0.0000e+00 3.0000e+01 3.5920e+04 3.2862e+03 2.2137e+03
1.8500e+03 0.0000e+00 3.0000e+01 2.5000e+01 2.2930e+01 8.8802e+01
1.8500e+03 0.0000e+00 3.0000e+01 1.0000e+02 1.3257e+02 2.3508e+02
1.8500e+03 0.0000e+00 3.0000e+01 3.8200e+02 4.1373e+02 3.9170e+02
1.8500e+03 0.0000e+00 3.0000e+01 1.8220e+03 8.1721e+02 6.4883e+02
1.8500e+03 0.0000e+00 3.0000e+01 7.9700e+03 1.4637e+03 1.2613e+03
1.8500e+03 0.0000e+00 3.0000e+01 3.5920e+04 3.2598e+03 2.3492e+03
1.9500e+03 0.0000e+00 3.0000e+01 2.5000e+01 2.4202e+01 8.6634e+01
1.9500e+03 0.0000e+00 3.0000e+01 1.0000e+02 1.3676e+02 2.3938e+02
1.9500e+03 0.0000e+00 3.0000e+01 3.8200e+02 4.0779e+02 4.2149e+02
1.9500e+03 0.0000e+00 3.0000e+01 1.8220e+03 8.4163e+02 6.4251e+02
1.9500e+03 0.0000e+00 3.0000e+01 7.9700e+03 1.4572e+03 1.2626e+03
1.9500e+03 0.0000e+00 3.0000e+01 3.5920e+04 3.4332e+03 2.3103e+03
2.0500e+03 0.0000e+00 3.0000e+01 2.5000e+01 2.7264e+01 9.1104e+01
2.0500e+03 0.0000e+00 3.0000e+01 1.0000e+02 1.4085e+02 2.3642e+02
2.0500e+03 0.0000e+00 3.0000e+01 3.8200e+02 4.1834e+02 4.0254e+02
2.0500e+03 0.0000e+00 3.0000e+01 1.8220e+03 8.3304e+02 6.2206e+02
2.0500e+03 0.0000e+00 3.0000e+01 7.9700e+03 1.4783e+03 1.2729e+03
2.0500e+03 0.0000e+00 3.0000e+01 3.5920e+04 3.2497e+03 2.3136e+03
2.1500e+03 0.0000e+00 3.0000e+01 2.5000e+01 2.7000e+01 9.5839e+01
2.1500e+03 0.0000e+00 3.0000e+01 1.0000e+02 1.4603e+02 2.4550e+02
2.1500e+03 0.0000e+00 3.0000e+01 3.8200e+02 4.2745e+02 3.9069e+02
2.1500e+03 0.0000e+00 3.0000e+01 1.8220e+03 8.1990e+02 6.2239e+02
2.1500e+03 0.0000e+00 3.0000e+01 7.9700e+03 1.4354e+03 1.2993e+03
2.1500e+03 0.0000e+00 3.0000e+01 3.5920e+04 3.4367e+03 2.2220e+03
2.2500e+03 0.0000e+00 3.0000e+01 2.5000e+01 2.4945e+01 9.3731e+01
2.2500e+03 0.0000e+00 3.0000e+01 1.0000e+02 1.4182e+02 2.4399e+02
2.2500e+03 0.0000e+00 3.0000e+01 3.8200e+02 4.1952e+02 3.8032e+02
2.2500e+03 0.0000e+00 3.0000e+01 1.8220e+03 8.1180e+02 6.5329e+02
2.2500e+03 0.0000e+00 3.0000e+01 7.9700e+03 1.5265e+03 1.3006e+03
2.2500e+03 0.0000e+00 3.0000e+01 3.5920e+04 3.3342e+03 2.2134e+03
2.3500e+03 0.0000e+00 3.0000e+01 2.5000e+01 2.6541e+01 8.7484e+01
2.3500e+03 0.0000e+00 3.0000e+01 1.0000e+02 1.4560e+02 2.4109e+02
2.3500e+03 0.0000e+00 3.0000e+01 3.8200e+02 4.1874e+02 4.0328e+02
2.3500e+03 0.0000e+00 3.0000e+01 1.8220e+03 8.2797e+02 6.4185e+02
2.3500e+03 0.0000e+00 3.0000e+01 7.9700e+03 1.4266e+03 1.1964e+03
2.3500e+03 0.0000e+00 3.0000e+01 3.5920e+04 3.2840e+03 2.2323e+03
2.4500e+03 0.0000e+00 3.0000e+01 2.5000e+01 2.4941e+01 9.3396e+01
2.4500e+03 0.0000e+00 3.0000e+01 1.0000e+02 1.4790e+02 2.2786e+02
2.4500e+03 0.0000e+00 3.0000e+01 3.8200e+02 4.0890e+02 3.9801e+02
2.4500e+03 0.0000e+00 3.0000e+01 1.8220e+03 8.3122e+02 6.4066e+02
2.4500e+03 0.0000e+00 3.0000e+01 7.9700e+03 1.5265e+03 1.2521e+03
2.4500e+03 0.0000e+00 3.0000e+01 3.5920e+04 3.3278e+03 2.2750e+03
2.5500e+03 0.0000e+00 3.0000e+01 2.5000e+01 2.5292e+01 8.9566e+01
2.5500e+03 0.0000e+00 3.0000e+01 1.0000e+02 1.3603e+02 2.2664e+02
2.5500e+03 0.0000e+00 3.0000e+01 3.8200e+02 4.2180e+02 4.1598e+02
2.5500e+03 0.0000e+00 3.0000e+01 1.8220e+03 8.2466e+02 6.3259e+02
2.5500e+03 0.0000e+00 3.0000e+01 7.9700e+03 1.4498e+03 1.2999e+03
2.5500e+03 0.0000e+00 3.0000e+01 3.5920e+04 3.3670e+03 2.2793e+03
2.6500e+03 0.0000e+00 3.0000e+01 2.5000e+01 2.7785e+01 9.8435e+01
2.6500e+03 0.0000e+00 3.0000e+01 1.0000e+02 1.4142e+02 2.4071e+02
2.6500e+03 0.0000e+00 3.0000e+01 3.8200e+02 4.0499e+02 4.0129e+02
2.6500e+03 0.0000e+00 3.0000e+01 1.8220e+03 8.6953e+02 6.1089e+02
2.6500e+03 0.0000e+00 3.0000e+01 7.9700e+03 1.4984e+03 1.2726e+03
2.6500e+03 0.0000e+00 3.0000e+01 3.5920e+04 3.2867e+03 2.2230e+03
2.7500e+03 0.0000e+00 3.0000e+01 2.5000e+01 2.9536e+01 9.8124e+01
2.7500e+03 0.0000e+00 3.0000e+01 1.0000e+02 1.4517e+02 2.2700e+02
2.7500e+03 0.0000e+00 3.0000e+01 3.8200e+02 4.2699e+02 4.1114e+02
2.7500e+03 0.0000e+00 3.0000e+01 1.8220e+03 8.1324e+02 6.1170e+02
2.7500e+03 0.0000e+00 3.0000e+01 7.9700e+03 1.5337e+03 1.2200e+03
2.7500e+03 0.0000e+00 3.0000e+01 3.5920e+04 3.2373e+03 2.2874e+03
2.8500e+03 0.0000e+00 3.0000e+01 2.5000e+01 2.8869e+01 9.8466e+01
2.8500e+03 0.0000e+00 3.0000e+01 1.0000e+02 1.5037e+02 2.2934e+02
2.8500e+03 0.0000e+00 3.0000e+01 3.8200e+02 4.2013e+02 3.9257e+02
2.8500e+03 0.0000e+00 3.0000e+01 1.8220e+03 8.3605e+02 6.2002e+02
2.8500e+03 0.0000e+00 3.0000e+01 7.9700e+03 1.5337e+03 1.2823e+03
2.8500e+03 0.0000e+00 3.0000e+01 3.5920e+04 3.5131e+03 2.1618e+03
2.9500e+03 0.0000e+00 3.0000e+01 2.5000e+01 2.9986e+01 9.6238e+01
2.9500e+03 0.0000e+00 3.0000e+01 1.0000e+02 1.5101e+02 2.3143e+02
2.9500e+03 0.0000e+00 3.0000e+01 3.8200e+02 3.9766e+02 4.0784e+02
2.9500e+03 0.0000e+00 3.0000e+01 1.8220e+03 8.6168e+02 6.5653e+02
2.9500e+03 0.0000e+00 3.0000e+01 7.9700e+03 1.5207e+03 1.2670e+03
2.9500e+03 0.0000e+00 3.0000e+01 3.5920e+04 3.4290e+03 2.2115e+03
3.0500e+03 0.0000e+00 3.0000e+01 2.5000e+01 2.9540e+01 9.2881e+01
3.0500e+03 0.0000e+00 3.0000e+01 1.0000e+02 1.5196e+02 2.3693e+02
3.0500e+03 0.0000e+00 3.0000e+01 3.8200e+02 3.9554e+02 3.8362e+02
3.0500e+03 0.0000e+00 3.0000e+01 1.8220e+03 8.7643e+02 6.1632e+02
3.0500e+03 0.0000e+00 3.0000e+01 7.9700e+03 1.5332e+03 1.2787e+03
3.0500e+03 0.0000e+00 3.0000e+01 3.5920e+04 3.5476e+03 2.3454e+03
3.1500e+03 0.0000e+00 3.0000e+01 2.5000e+01 2.7432e+01 9.7734e+01
3.1500e+03 0.0000e+00 3.0000e+01 1.0000e+02 1.5135e+02 2.2670e+02
3.1500e+03 0.0000e+00 3.0000e+01 3.8200e+02 4.0391e+02 4.1049e+02
3.1500e+03 0.0000e+00 3.0000e+01 1.8220e+03 8.4339e+02 6.2062e+02
3.1500e+03 0.0000e+00 3.0000e+01 7.9700e+03 1.4695e+03 1.3024e+03
3.1500e+03 0.0000e+00 3.0000e+01 3.5920e+04 3.2949e+03 2.2829e+03
3.2500e+03 0.0000e+00 3.0000e+01 2.5000e+01 2.9875e+01 9.5896e+01
3.2500e+03 0.0000e+00 3.0000e+01 1.0000e+02 1.4474e+02 2.2893e+02
3.2500e+03 0.0000e+00 3.0000e+01 3.8200e+02 4.1197e+02 3.9254e+02
3.2500e+03 0.0000e+00 3.0000e+01 1.8220e+03 8.5182e+02 6.4968e+02
3.2500e+03 0.0000e+00 3.0000e+01 7.9700e+03 1.4477e+03 1.2672e+03
3.2500e+03 0.0000e+00 3.0000e+01 3.5920e+04 3.3159e+03 2.1600e+03
3.3500e+03 0.0000e+00 3.0000e+01 2.5000e+01 3.1918e+01 9.9811e+01
3.3500e+03 0.0000e+00 3.0000e+01 1.0000e+02 1.5569e+02 2.4205e+02
3.3500e+03 0.0000e+00 3.0000e+01 3.8200e+02 4.2369e+02 3.7951e+02
3.3500e+03 0.0000e+00 3.0000e+01 1.8220e+03 8.3117e+02 6.4392e+02
3.3500e+03 0.0000e+00 3.0000e+01 7.9700e+03 1.4307e+03 1.2325e+03
3.3500e+03 0.0000e+00 3.0000e+01 3.5920e+04 3.3488e+03 2.2635e+03
3.4500e+03 0.0000e+00 3.0000e+01 2.5000e+01 3.2215e+01 9.9355e+01
3.4500e+03 0.0000e+00 3.0000e+01 1.0000e+02 1.4645e+02 2.2737e+02
3.4500e+03 0.0000e+00 3.0000e+01 3.8200e+02 4.1442e+02 3.8555e+02
3.4500e+03 0.0000e+00 3.0000e+01 1.8220e+03 8.4472e+02 6.0575e+02
3.4500e+03 0.0000e+00 3.0000e+01 7.9700e+03 1.4563e+03 1.2378e+03
3.4500e+03 0.0000e+00 3.0000e+01 3.5920e+04 3.4864e+03 2.3273e+03
3.5500e+03 0.0000e+00 3.0000e+01 2.5000e+01 3.2384e+01 9.9797e+01
3.5500e+03 0.0000e+00 3.0000e+01 1.0000e+02 1.5366e+02 2.2726e+02
3.5500e+03 0.0000e+00 3.0000e+01 3.8200e+02 4.1162e+02 3.7845e+02
3.5500e+03 0.0000e+00 3.0000e+01 1.8220e+03 8.6656e+02 6.0195e+02
3.5500e+03 0.0000e+00 3.0000e+01 7.9700e+03 1.5212e+03 1.2794e+03
3.5500e+03 0.0000e+00 3.0000e+01 3.5920e+04 3.4252e+03 2.3455e+03
3.6500e+03 0.0000e+00 3.0000e+01 2.5000e+01 3.1991e+01 9.8546e+01
3.6500e+03 0.0000e+00 3.0000e+01 1.0000e+02 1.4463e+02 2.3015e+02
3.6500e+03 0.0000e+00 3.0000e+01 3.8200e+02 4.0595e+02 3.9113e+02
3.6500e+03 0.0000e+00 3.0000e+01 1.8220e+03 8.2388e+02 6.1076e+02
3.6500e+03 0.0000e+00 3.0000e+01 7.9700e+03 1.4253e+03 1.2686e+03
3.6500e+03 0.0000e+00 3.0000e+01 3.5920e+04 3.3252e+03 2.2179e+03
3.7500e+03 0.0000e+00 3.0000e+01 2.5000e+01 3.1860e+01 9.3569e+01
3.7500e+03 0.0000e+00 3.0000e+01 1.0000e+02 1.4944e+02 2.2326e+02
3.7500e+03 0.0000e+00 3.0000e+01 3.8200e+02 4.1374e+02 3.9885e+02
3.7500e+03 0.0000e+00 3.0000e+01 1.8220e+03 8.1150e+02 6.5520e+02
3.7500e+03 0.0000e+00 3.0000e+01 7.9700e+03 1.4473e+03 1.2640e+03
3.7500e+03 0.0000e+00 3.0000e+01 3.5920e+04 3.4949e+03 2.2366e+03
3.8500e+03 0.0000e+00 3.0000e+01 2.5000e+01 3.0673e+01 9.3148e+01
3.8500e+03 0.0000e+00 3.0000e+01 1.0000e+02 1.5286e+02 2.2675e+02
3.8500e+03 0.0000e+00 3.0000e+01 3.8200e+02 4.1643e+02 4.1086e+02
3.8500e+03 0.0000e+00 3.0000e+01 1.8220e+03 8.6213e+02 6.5770e+02
3.8500e+03 0.0000e+00 3.0000e+01 7.9700e+03 1.4225e+03 1.2155e+03
3.8500e+03 0.0000e+00 3.0000e+01 3.5920e+04 3.2797e+03 2.1886e+03
3.9500e+03 0.0000e+00 3.0000e+01 2.5000e+01 3.2254e+01 9.6051e+01
3.9500e+03 0.0000e+00 3.0000e+01 1.0000e+02 1.4632e+02 2.2686e+02
3.9500e+03 0.0000e+00 3.0000e+01 3.8200e+02 3.9262e+02 3.7555e+02
3.9500e+03 0.0000e+00 3.0000e+01 1.8220e+03 8.2807e+02 6.2598e+02
3.9500e+03 0.0000e+00 3.0000e+01 7.9700e+03 1.4310e+03 1.2414e+03
3.9500e+03 0.0000e+00 3.0000e+01 3.5920e+04 3.2538e+03 2.2446e+03
4.0500e+03 0.0000e+00 3.0000e+01 2.5000e+01 3.1580e+01 9.7197e+01
4.0500e+03 0.0000e+00 3.0000e+01 1.0000e+02 1.4459e+02 2.3276e+02
4.0500e+03 0.0000e+00 3.0000e+01 3.8200e+02 4.1921e+02 4.0561e+02
4.0500e+03 0.0000e+00 3.0000e+01 1.8220e+03 8.4862e+02 6.3358e+02
4.0500e+03 0.0000e+00 3.0000e+01 7.9700e+03 1.5262e+03 1.2092e+03
4.0500e+03 0.0000e+00 3.0000e+01 3.5920e+04 3.4047e+03 2.2352e+03
4.1500e+03 0.0000e+00 3.0000e+01 2.5000e+01 3.2821e+01 1.0067e+02
4.1500e+03 0.0000e+00 3.0000e+01 1.0000e+02 1.4796e+02 2.3651e+02
4.1500e+03 0.0000e+00 3.0000e+01 3.8200e+02 4.1621e+02 4.0160e+02
4.1500e+03 0.0000e+00 3.0000e+01 1.8220e+03 8.3642e+02 6.1439e+02
4.1500e+03 0.0000e+00 3.0000e+01 7.9700e+03 1.4873e+03 1.2857e+03
4.1500e+03 0.0000e+00 3.0000e+01 3.5920e+04 3.2973e+03 2.2437e+03
4.2500e+03 0.0000e+00 3.0000e+01 2.5000e+01 3.3507e+01 9.6754e+01
4.2500e+03 0.0000e+00 3.0000e+01 1.0000e+02 1.5229e+02 2.3412e+02
4.2500e+03 0.0000e+00 3.0000e+01 3.8200e+02 4.1546e+02 3.8149e+02
4.2500e+03 0.0000e+00 3.0000e+01 1.8220e+03 8.7439e+02 6.3804e+02
4.2500e+03 0.0000e+00 3.0000e+01 7.9700e+03 1.4396e+03 1.2567e+03
4.2500e+03 0.0000e+00 3.0000e+01 3.5920e+04 3.2966e+03 2.2498e+03
4.3500e+03 0.0000e+00 3.0000e+01 2.5000e+01 3.3266e+01 9.7004e+01
4.3500e+03 0.0000e+00 3.0000e+01 1.0000e+02 1.5657e+02 2.3567e+02
4.3500e+03 0.0000e+00 3.0000e+01 3.8200e+02 4.0411e+02 3.8727e+02
4.3500e+03 0.0000e+00 3.0000e+01 1.8220e+03 8.7862e+02 6.1482e+02
4.3500e+03 0.0000e+00 3.0000e+01 7.9700e+03 1.5093e+03 1.2055e+03
4.3500e+03 0.0000e+00 3.0000e+01 3.5920e+04 3.2363e+03 2.2080e+03
4.4500e+03 0.0000e+00 3.0000e+01 2.5000e+01 3.2419e+01 9.5200e+01
4.4500e+03 0.0000e+00 3.0000e+01 1.0000e+02 1.4972e+02 2.3969e+02
4.4500e+03 0.0000e+00 3.0000e+01 3.8200e+02 4.1446e+02 3.7430e+02
4.4500e+03 0.0000e+00 3.0000e+01 1.8220e+03 8.1842e+02 6.1435e+02
4.4500e+03 0.0000e+00 3.0000e+01 7.9700e+03 1.4700e+03 1.2470e+03
4.4500e+03 0.0000e+00 3.0000e+01 3.5920e+04 3.3500e+03 2.1563e+03
4.5500e+03 0.0000e+00 3.0000e+01 2.5000e+01 3.1923e+01 9.5931e+01
4.5500e+03 0.0000e+00 3.0000e+01 1.0000e+02 1.6033e+02 2.2550e+02
4.5500e+03 0.0000e+00 3.0000e+01 3.8200e+02 4.0072e+02 3.9121e+02
4.5500e+03 0.0000e+00 3.0000e+01 1.8220e+03 8.1661e+02 6.1209e+02
4.5500e+03 0.0000e+00 3.0000e+01 7.9700e+03 1.5028e+03 1.2035e+03
4.5500e+03 0.0000e+00 3.0000e+01 3.5920e+04 3.4340e+03 2.3359e+03
4.6500e+03 0.0000e+00 3.0000e+01 2.5000e+01 3.2278e+01 9.3588e+01
4.6500e+03 0.0000e+00 3.0000e+01 1.0000e+02 1.4834e+02 2.2178e+02
4.6500e+03 0.0000e+00 3.0000e+01 3.8200e+02 3.9824e+02 4.0197e+02
4.6500e+03 0.0000e+00 3.0000e+01 1.8220e+03 8.4637e+02 6.0799e+02
4.6500e+03 0.0000e+00 3.0000e+01 7.9700e+03 1.5171e+03 1.2881e+03
4.6500e+03 0.0000e+00 3.0000e+01 3.5920e+04 3.4386e+03 2.3105e+03
4.7500e+03 0.0000e+00 3.0000e+01 2.5000e+01 3.2928e+01 9.3741e+01
4.7500e+03 0.0000e+00 3.0000e+01 1.0000e+02 1.5340e+02 2.3240e+02
4.7500e+03 0.0000e+00 3.0000e+01 3.8200e+02 3.9288e+02 3.8235e+02
4.7500e+03 0.0000e+00 3.0000e+01 1.8220e+03 8.1176e+02 6.5496e+02
4.7500e+03 0.0000e+00 3.0000e+01 7.9700e+03 1.5211e+03 1.2914e+03
4.7500e+03 0.0000e+00 3.0000e+01 3.5920e+04 3.3664e+03 2.3223e+03
4.8500e+03 0.0000e+00 3.0000e+01 2.5000e+01 3.3851e+01 9.6297e+01
4.8500e+03 0.0000e+00 3.0000e+01 1.0000e+02 1.5980e+02 2.3727e+02
4.8500e+03 0.0000e+00 3.0000e+01 3.8200e+02 4.1024e+02 4.0474e+02
4.8500e+03 0.0000e+00 3.0000e+01 1.8220e+03 8.5583e+02 6.3773e+02
4.8500e+03 0.0000e+00 3.0000e+01 7.9700e+03 1.4432e+03 1.2730e+03
4.8500e+03 0.0000e+00 3.0000e+01 3.5920e+04 3.4204e+03 2.3542e+03
4.9500e+03 0.0000e+00 3.0000e+01 2.5000e+01 3.3692e+01 9.7918e+01
4.9500e+03 0.0000e+00 3.0000e+01 1.0000e+02 1.5566e+02 2.3200e+02
4.9500e+03 0.0000e+00 3.0000e+01 3.8200e+02 4.0123e+02 4.0238e+02
4.9500e+03 0.0000e+00 3.0000e+01 1.8220e+03 8.3019e+02 6.5878e+02
4.9500e+03 0.0000e+00 3.0000e+01 7.9700e+03 1.4291e+03 1.2460e+03
4.9500e+03 0.0000e+00 3.0000e+01 3.5920e+04 3.3324e+03 2.2897e+03
